!Keysight Technologies,E5061B,SG49100003,B.05.06
!Date: Mon Jan 06 17:54:43 2020
!Data & Calibration Information:
!Freq	S11:NONE(--)	S21:RESPT(ON)	S12:NONE(--)	S22:NONE(--)
# Hz S dB R 50
10000000.000	-2.000000e+002	0.000000e+000	-2.503855e-002	-1.089182e+001	-2.000000e+002	0.000000e+000	-2.000000e+002	0.000000e+000
10618750.000	-2.000000e+002	0.000000e+000	-2.461170e-002	-1.154480e+001	-2.000000e+002	0.000000e+000	-2.000000e+002	0.000000e+000
11237500.000	-2.000000e+002	0.000000e+000	-2.519202e-002	-1.222676e+001	-2.000000e+002	0.000000e+000	-2.000000e+002	0.000000e+000
11856250.000	-2.000000e+002	0.000000e+000	-2.631210e-002	-1.289376e+001	-2.000000e+002	0.000000e+000	-2.000000e+002	0.000000e+000
12475000.000	-2.000000e+002	0.000000e+000	-2.523818e-002	-1.356785e+001	-2.000000e+002	0.000000e+000	-2.000000e+002	0.000000e+000
13093750.000	-2.000000e+002	0.000000e+000	-2.869523e-002	-1.422835e+001	-2.000000e+002	0.000000e+000	-2.000000e+002	0.000000e+000
13712500.000	-2.000000e+002	0.000000e+000	-2.798828e-002	-1.488884e+001	-2.000000e+002	0.000000e+000	-2.000000e+002	0.000000e+000
14331250.000	-2.000000e+002	0.000000e+000	-2.804792e-002	-1.556081e+001	-2.000000e+002	0.000000e+000	-2.000000e+002	0.000000e+000
14950000.000	-2.000000e+002	0.000000e+000	-2.989689e-002	-1.622288e+001	-2.000000e+002	0.000000e+000	-2.000000e+002	0.000000e+000
15568750.000	-2.000000e+002	0.000000e+000	-3.076724e-002	-1.688437e+001	-2.000000e+002	0.000000e+000	-2.000000e+002	0.000000e+000
16187500.000	-2.000000e+002	0.000000e+000	-3.002053e-002	-1.754917e+001	-2.000000e+002	0.000000e+000	-2.000000e+002	0.000000e+000
16806250.000	-2.000000e+002	0.000000e+000	-3.105280e-002	-1.822802e+001	-2.000000e+002	0.000000e+000	-2.000000e+002	0.000000e+000
17425000.000	-2.000000e+002	0.000000e+000	-3.235170e-002	-1.888527e+001	-2.000000e+002	0.000000e+000	-2.000000e+002	0.000000e+000
18043750.000	-2.000000e+002	0.000000e+000	-3.234547e-002	-1.954687e+001	-2.000000e+002	0.000000e+000	-2.000000e+002	0.000000e+000
18662500.000	-2.000000e+002	0.000000e+000	-3.346498e-002	-2.020677e+001	-2.000000e+002	0.000000e+000	-2.000000e+002	0.000000e+000
19281250.000	-2.000000e+002	0.000000e+000	-3.274420e-002	-2.087880e+001	-2.000000e+002	0.000000e+000	-2.000000e+002	0.000000e+000
19900000.000	-2.000000e+002	0.000000e+000	-3.364657e-002	-2.154879e+001	-2.000000e+002	0.000000e+000	-2.000000e+002	0.000000e+000
20518750.000	-2.000000e+002	0.000000e+000	-3.585327e-002	-2.221376e+001	-2.000000e+002	0.000000e+000	-2.000000e+002	0.000000e+000
21137500.000	-2.000000e+002	0.000000e+000	-3.563955e-002	-2.288536e+001	-2.000000e+002	0.000000e+000	-2.000000e+002	0.000000e+000
21756250.000	-2.000000e+002	0.000000e+000	-3.598220e-002	-2.355275e+001	-2.000000e+002	0.000000e+000	-2.000000e+002	0.000000e+000
22375000.000	-2.000000e+002	0.000000e+000	-3.683604e-002	-2.420995e+001	-2.000000e+002	0.000000e+000	-2.000000e+002	0.000000e+000
22993750.000	-2.000000e+002	0.000000e+000	-3.684949e-002	-2.486881e+001	-2.000000e+002	0.000000e+000	-2.000000e+002	0.000000e+000
23612500.000	-2.000000e+002	0.000000e+000	-3.747531e-002	-2.553903e+001	-2.000000e+002	0.000000e+000	-2.000000e+002	0.000000e+000
24231250.000	-2.000000e+002	0.000000e+000	-3.905558e-002	-2.620665e+001	-2.000000e+002	0.000000e+000	-2.000000e+002	0.000000e+000
24850000.000	-2.000000e+002	0.000000e+000	-3.941583e-002	-2.686646e+001	-2.000000e+002	0.000000e+000	-2.000000e+002	0.000000e+000
25468750.000	-2.000000e+002	0.000000e+000	-3.889283e-002	-2.752915e+001	-2.000000e+002	0.000000e+000	-2.000000e+002	0.000000e+000
26087500.000	-2.000000e+002	0.000000e+000	-3.832486e-002	-2.820395e+001	-2.000000e+002	0.000000e+000	-2.000000e+002	0.000000e+000
26706250.000	-2.000000e+002	0.000000e+000	-4.041311e-002	-2.885686e+001	-2.000000e+002	0.000000e+000	-2.000000e+002	0.000000e+000
27325000.000	-2.000000e+002	0.000000e+000	-3.916367e-002	-2.954536e+001	-2.000000e+002	0.000000e+000	-2.000000e+002	0.000000e+000
27943750.000	-2.000000e+002	0.000000e+000	-3.950562e-002	-3.019864e+001	-2.000000e+002	0.000000e+000	-2.000000e+002	0.000000e+000
28562500.000	-2.000000e+002	0.000000e+000	-4.156860e-002	-3.085664e+001	-2.000000e+002	0.000000e+000	-2.000000e+002	0.000000e+000
29181250.000	-2.000000e+002	0.000000e+000	-4.104000e-002	-3.152770e+001	-2.000000e+002	0.000000e+000	-2.000000e+002	0.000000e+000
29800000.000	-2.000000e+002	0.000000e+000	-4.165318e-002	-3.218697e+001	-2.000000e+002	0.000000e+000	-2.000000e+002	0.000000e+000
30418750.000	-2.000000e+002	0.000000e+000	-4.050102e-002	-3.286719e+001	-2.000000e+002	0.000000e+000	-2.000000e+002	0.000000e+000
31037500.000	-2.000000e+002	0.000000e+000	-4.471259e-002	-3.352467e+001	-2.000000e+002	0.000000e+000	-2.000000e+002	0.000000e+000
31656250.000	-2.000000e+002	0.000000e+000	-4.418098e-002	-3.419813e+001	-2.000000e+002	0.000000e+000	-2.000000e+002	0.000000e+000
32275000.000	-2.000000e+002	0.000000e+000	-4.477140e-002	-3.486469e+001	-2.000000e+002	0.000000e+000	-2.000000e+002	0.000000e+000
32893750.000	-2.000000e+002	0.000000e+000	-4.458679e-002	-3.552762e+001	-2.000000e+002	0.000000e+000	-2.000000e+002	0.000000e+000
33512500.000	-2.000000e+002	0.000000e+000	-4.513306e-002	-3.618902e+001	-2.000000e+002	0.000000e+000	-2.000000e+002	0.000000e+000
34131250.000	-2.000000e+002	0.000000e+000	-4.717597e-002	-3.685832e+001	-2.000000e+002	0.000000e+000	-2.000000e+002	0.000000e+000
34750000.000	-2.000000e+002	0.000000e+000	-4.584742e-002	-3.750999e+001	-2.000000e+002	0.000000e+000	-2.000000e+002	0.000000e+000
35368750.000	-2.000000e+002	0.000000e+000	-4.719277e-002	-3.818300e+001	-2.000000e+002	0.000000e+000	-2.000000e+002	0.000000e+000
35987500.000	-2.000000e+002	0.000000e+000	-4.741234e-002	-3.885385e+001	-2.000000e+002	0.000000e+000	-2.000000e+002	0.000000e+000
36606250.000	-2.000000e+002	0.000000e+000	-4.808062e-002	-3.951637e+001	-2.000000e+002	0.000000e+000	-2.000000e+002	0.000000e+000
37225000.000	-2.000000e+002	0.000000e+000	-5.033833e-002	-4.018367e+001	-2.000000e+002	0.000000e+000	-2.000000e+002	0.000000e+000
37843750.000	-2.000000e+002	0.000000e+000	-5.019751e-002	-4.083997e+001	-2.000000e+002	0.000000e+000	-2.000000e+002	0.000000e+000
38462500.000	-2.000000e+002	0.000000e+000	-4.973254e-002	-4.151266e+001	-2.000000e+002	0.000000e+000	-2.000000e+002	0.000000e+000
39081250.000	-2.000000e+002	0.000000e+000	-5.135960e-002	-4.217351e+001	-2.000000e+002	0.000000e+000	-2.000000e+002	0.000000e+000
39700000.000	-2.000000e+002	0.000000e+000	-4.982393e-002	-4.284043e+001	-2.000000e+002	0.000000e+000	-2.000000e+002	0.000000e+000
40318750.000	-2.000000e+002	0.000000e+000	-5.088196e-002	-4.350725e+001	-2.000000e+002	0.000000e+000	-2.000000e+002	0.000000e+000
40937500.000	-2.000000e+002	0.000000e+000	-5.113685e-002	-4.417655e+001	-2.000000e+002	0.000000e+000	-2.000000e+002	0.000000e+000
41556250.000	-2.000000e+002	0.000000e+000	-5.218801e-002	-4.481941e+001	-2.000000e+002	0.000000e+000	-2.000000e+002	0.000000e+000
42175000.000	-2.000000e+002	0.000000e+000	-5.288710e-002	-4.549068e+001	-2.000000e+002	0.000000e+000	-2.000000e+002	0.000000e+000
42793750.000	-2.000000e+002	0.000000e+000	-5.314194e-002	-4.617323e+001	-2.000000e+002	0.000000e+000	-2.000000e+002	0.000000e+000
43412500.000	-2.000000e+002	0.000000e+000	-5.355198e-002	-4.683357e+001	-2.000000e+002	0.000000e+000	-2.000000e+002	0.000000e+000
44031250.000	-2.000000e+002	0.000000e+000	-5.316011e-002	-4.749371e+001	-2.000000e+002	0.000000e+000	-2.000000e+002	0.000000e+000
44650000.000	-2.000000e+002	0.000000e+000	-5.425087e-002	-4.816071e+001	-2.000000e+002	0.000000e+000	-2.000000e+002	0.000000e+000
45268750.000	-2.000000e+002	0.000000e+000	-5.451183e-002	-4.882464e+001	-2.000000e+002	0.000000e+000	-2.000000e+002	0.000000e+000
45887500.000	-2.000000e+002	0.000000e+000	-5.612251e-002	-4.948461e+001	-2.000000e+002	0.000000e+000	-2.000000e+002	0.000000e+000
46506250.000	-2.000000e+002	0.000000e+000	-5.612550e-002	-5.013925e+001	-2.000000e+002	0.000000e+000	-2.000000e+002	0.000000e+000
47125000.000	-2.000000e+002	0.000000e+000	-5.615100e-002	-5.081657e+001	-2.000000e+002	0.000000e+000	-2.000000e+002	0.000000e+000
47743750.000	-2.000000e+002	0.000000e+000	-5.769058e-002	-5.146971e+001	-2.000000e+002	0.000000e+000	-2.000000e+002	0.000000e+000
48362500.000	-2.000000e+002	0.000000e+000	-5.682676e-002	-5.213487e+001	-2.000000e+002	0.000000e+000	-2.000000e+002	0.000000e+000
48981250.000	-2.000000e+002	0.000000e+000	-5.767600e-002	-5.280348e+001	-2.000000e+002	0.000000e+000	-2.000000e+002	0.000000e+000
49600000.000	-2.000000e+002	0.000000e+000	-5.744806e-002	-5.347378e+001	-2.000000e+002	0.000000e+000	-2.000000e+002	0.000000e+000
50218750.000	-2.000000e+002	0.000000e+000	-5.854938e-002	-5.413258e+001	-2.000000e+002	0.000000e+000	-2.000000e+002	0.000000e+000
50837500.000	-2.000000e+002	0.000000e+000	-6.013916e-002	-5.479319e+001	-2.000000e+002	0.000000e+000	-2.000000e+002	0.000000e+000
51456250.000	-2.000000e+002	0.000000e+000	-6.038727e-002	-5.546039e+001	-2.000000e+002	0.000000e+000	-2.000000e+002	0.000000e+000
52075000.000	-2.000000e+002	0.000000e+000	-5.991756e-002	-5.612597e+001	-2.000000e+002	0.000000e+000	-2.000000e+002	0.000000e+000
52693750.000	-2.000000e+002	0.000000e+000	-6.110747e-002	-5.677797e+001	-2.000000e+002	0.000000e+000	-2.000000e+002	0.000000e+000
53312500.000	-2.000000e+002	0.000000e+000	-6.134721e-002	-5.745326e+001	-2.000000e+002	0.000000e+000	-2.000000e+002	0.000000e+000
53931250.000	-2.000000e+002	0.000000e+000	-5.969735e-002	-5.811858e+001	-2.000000e+002	0.000000e+000	-2.000000e+002	0.000000e+000
54550000.000	-2.000000e+002	0.000000e+000	-6.199536e-002	-5.878749e+001	-2.000000e+002	0.000000e+000	-2.000000e+002	0.000000e+000
55168750.000	-2.000000e+002	0.000000e+000	-6.178750e-002	-5.944317e+001	-2.000000e+002	0.000000e+000	-2.000000e+002	0.000000e+000
55787500.000	-2.000000e+002	0.000000e+000	-6.179498e-002	-6.010271e+001	-2.000000e+002	0.000000e+000	-2.000000e+002	0.000000e+000
56406250.000	-2.000000e+002	0.000000e+000	-6.211107e-002	-6.076629e+001	-2.000000e+002	0.000000e+000	-2.000000e+002	0.000000e+000
57025000.000	-2.000000e+002	0.000000e+000	-6.209704e-002	-6.143716e+001	-2.000000e+002	0.000000e+000	-2.000000e+002	0.000000e+000
57643750.000	-2.000000e+002	0.000000e+000	-6.164248e-002	-6.209094e+001	-2.000000e+002	0.000000e+000	-2.000000e+002	0.000000e+000
58262500.000	-2.000000e+002	0.000000e+000	-6.310749e-002	-6.276753e+001	-2.000000e+002	0.000000e+000	-2.000000e+002	0.000000e+000
58881250.000	-2.000000e+002	0.000000e+000	-6.410542e-002	-6.343575e+001	-2.000000e+002	0.000000e+000	-2.000000e+002	0.000000e+000
59500000.000	-2.000000e+002	0.000000e+000	-6.576402e-002	-6.408331e+001	-2.000000e+002	0.000000e+000	-2.000000e+002	0.000000e+000
60118750.000	-2.000000e+002	0.000000e+000	-6.356628e-002	-6.476372e+001	-2.000000e+002	0.000000e+000	-2.000000e+002	0.000000e+000
60737500.000	-2.000000e+002	0.000000e+000	-6.389785e-002	-6.541811e+001	-2.000000e+002	0.000000e+000	-2.000000e+002	0.000000e+000
61356250.000	-2.000000e+002	0.000000e+000	-6.355171e-002	-6.607744e+001	-2.000000e+002	0.000000e+000	-2.000000e+002	0.000000e+000
61975000.000	-2.000000e+002	0.000000e+000	-6.525270e-002	-6.674824e+001	-2.000000e+002	0.000000e+000	-2.000000e+002	0.000000e+000
62593750.000	-2.000000e+002	0.000000e+000	-6.597267e-002	-6.740087e+001	-2.000000e+002	0.000000e+000	-2.000000e+002	0.000000e+000
63212500.000	-2.000000e+002	0.000000e+000	-6.533429e-002	-6.807170e+001	-2.000000e+002	0.000000e+000	-2.000000e+002	0.000000e+000
63831250.000	-2.000000e+002	0.000000e+000	-6.530509e-002	-6.873467e+001	-2.000000e+002	0.000000e+000	-2.000000e+002	0.000000e+000
64450000.000	-2.000000e+002	0.000000e+000	-6.665727e-002	-6.939486e+001	-2.000000e+002	0.000000e+000	-2.000000e+002	0.000000e+000
65068750.000	-2.000000e+002	0.000000e+000	-6.657959e-002	-7.006002e+001	-2.000000e+002	0.000000e+000	-2.000000e+002	0.000000e+000
65687500.000	-2.000000e+002	0.000000e+000	-6.812166e-002	-7.072397e+001	-2.000000e+002	0.000000e+000	-2.000000e+002	0.000000e+000
66306250.000	-2.000000e+002	0.000000e+000	-6.972876e-002	-7.138910e+001	-2.000000e+002	0.000000e+000	-2.000000e+002	0.000000e+000
66925000.000	-2.000000e+002	0.000000e+000	-6.858760e-002	-7.204949e+001	-2.000000e+002	0.000000e+000	-2.000000e+002	0.000000e+000
67543750.000	-2.000000e+002	0.000000e+000	-6.698847e-002	-7.272080e+001	-2.000000e+002	0.000000e+000	-2.000000e+002	0.000000e+000
68162500.000	-2.000000e+002	0.000000e+000	-6.734427e-002	-7.337561e+001	-2.000000e+002	0.000000e+000	-2.000000e+002	0.000000e+000
68781250.000	-2.000000e+002	0.000000e+000	-6.752981e-002	-7.404503e+001	-2.000000e+002	0.000000e+000	-2.000000e+002	0.000000e+000
69400000.000	-2.000000e+002	0.000000e+000	-6.910997e-002	-7.470825e+001	-2.000000e+002	0.000000e+000	-2.000000e+002	0.000000e+000
70018750.000	-2.000000e+002	0.000000e+000	-6.851963e-002	-7.537902e+001	-2.000000e+002	0.000000e+000	-2.000000e+002	0.000000e+000
70637500.000	-2.000000e+002	0.000000e+000	-6.766395e-002	-7.602753e+001	-2.000000e+002	0.000000e+000	-2.000000e+002	0.000000e+000
71256250.000	-2.000000e+002	0.000000e+000	-6.951954e-002	-7.670070e+001	-2.000000e+002	0.000000e+000	-2.000000e+002	0.000000e+000
71875000.000	-2.000000e+002	0.000000e+000	-6.831330e-002	-7.735931e+001	-2.000000e+002	0.000000e+000	-2.000000e+002	0.000000e+000
72493750.000	-2.000000e+002	0.000000e+000	-6.973160e-002	-7.802932e+001	-2.000000e+002	0.000000e+000	-2.000000e+002	0.000000e+000
73112500.000	-2.000000e+002	0.000000e+000	-7.028907e-002	-7.868056e+001	-2.000000e+002	0.000000e+000	-2.000000e+002	0.000000e+000
73731250.000	-2.000000e+002	0.000000e+000	-7.183096e-002	-7.935141e+001	-2.000000e+002	0.000000e+000	-2.000000e+002	0.000000e+000
74350000.000	-2.000000e+002	0.000000e+000	-6.952940e-002	-8.002078e+001	-2.000000e+002	0.000000e+000	-2.000000e+002	0.000000e+000
74968750.000	-2.000000e+002	0.000000e+000	-7.162149e-002	-8.067276e+001	-2.000000e+002	0.000000e+000	-2.000000e+002	0.000000e+000
75587500.000	-2.000000e+002	0.000000e+000	-7.380333e-002	-8.135070e+001	-2.000000e+002	0.000000e+000	-2.000000e+002	0.000000e+000
76206250.000	-2.000000e+002	0.000000e+000	-7.089946e-002	-8.201582e+001	-2.000000e+002	0.000000e+000	-2.000000e+002	0.000000e+000
76825000.000	-2.000000e+002	0.000000e+000	-6.988342e-002	-8.266352e+001	-2.000000e+002	0.000000e+000	-2.000000e+002	0.000000e+000
77443750.000	-2.000000e+002	0.000000e+000	-7.189570e-002	-8.334069e+001	-2.000000e+002	0.000000e+000	-2.000000e+002	0.000000e+000
78062500.000	-2.000000e+002	0.000000e+000	-7.178232e-002	-8.400527e+001	-2.000000e+002	0.000000e+000	-2.000000e+002	0.000000e+000
78681250.000	-2.000000e+002	0.000000e+000	-7.052317e-002	-8.466576e+001	-2.000000e+002	0.000000e+000	-2.000000e+002	0.000000e+000
79300000.000	-2.000000e+002	0.000000e+000	-7.348715e-002	-8.532961e+001	-2.000000e+002	0.000000e+000	-2.000000e+002	0.000000e+000
79918750.000	-2.000000e+002	0.000000e+000	-7.328759e-002	-8.599821e+001	-2.000000e+002	0.000000e+000	-2.000000e+002	0.000000e+000
80537500.000	-2.000000e+002	0.000000e+000	-7.262141e-002	-8.665631e+001	-2.000000e+002	0.000000e+000	-2.000000e+002	0.000000e+000
81156250.000	-2.000000e+002	0.000000e+000	-7.172738e-002	-8.732452e+001	-2.000000e+002	0.000000e+000	-2.000000e+002	0.000000e+000
81775000.000	-2.000000e+002	0.000000e+000	-7.351614e-002	-8.798301e+001	-2.000000e+002	0.000000e+000	-2.000000e+002	0.000000e+000
82393750.000	-2.000000e+002	0.000000e+000	-7.316386e-002	-8.865230e+001	-2.000000e+002	0.000000e+000	-2.000000e+002	0.000000e+000
83012500.000	-2.000000e+002	0.000000e+000	-7.291305e-002	-8.931576e+001	-2.000000e+002	0.000000e+000	-2.000000e+002	0.000000e+000
83631250.000	-2.000000e+002	0.000000e+000	-7.297142e-002	-8.998223e+001	-2.000000e+002	0.000000e+000	-2.000000e+002	0.000000e+000
84250000.000	-2.000000e+002	0.000000e+000	-7.278369e-002	-9.063282e+001	-2.000000e+002	0.000000e+000	-2.000000e+002	0.000000e+000
84868750.000	-2.000000e+002	0.000000e+000	-7.493669e-002	-9.130992e+001	-2.000000e+002	0.000000e+000	-2.000000e+002	0.000000e+000
85487500.000	-2.000000e+002	0.000000e+000	-7.376239e-002	-9.196776e+001	-2.000000e+002	0.000000e+000	-2.000000e+002	0.000000e+000
86106250.000	-2.000000e+002	0.000000e+000	-7.603255e-002	-9.263060e+001	-2.000000e+002	0.000000e+000	-2.000000e+002	0.000000e+000
86725000.000	-2.000000e+002	0.000000e+000	-7.469369e-002	-9.329576e+001	-2.000000e+002	0.000000e+000	-2.000000e+002	0.000000e+000
87343750.000	-2.000000e+002	0.000000e+000	-7.437478e-002	-9.396805e+001	-2.000000e+002	0.000000e+000	-2.000000e+002	0.000000e+000
87962500.000	-2.000000e+002	0.000000e+000	-7.607430e-002	-9.463229e+001	-2.000000e+002	0.000000e+000	-2.000000e+002	0.000000e+000
88581250.000	-2.000000e+002	0.000000e+000	-7.533411e-002	-9.527984e+001	-2.000000e+002	0.000000e+000	-2.000000e+002	0.000000e+000
89200000.000	-2.000000e+002	0.000000e+000	-7.583775e-002	-9.595413e+001	-2.000000e+002	0.000000e+000	-2.000000e+002	0.000000e+000
89818750.000	-2.000000e+002	0.000000e+000	-7.627516e-002	-9.662066e+001	-2.000000e+002	0.000000e+000	-2.000000e+002	0.000000e+000
90437500.000	-2.000000e+002	0.000000e+000	-7.670004e-002	-9.729768e+001	-2.000000e+002	0.000000e+000	-2.000000e+002	0.000000e+000
91056250.000	-2.000000e+002	0.000000e+000	-7.584500e-002	-9.794111e+001	-2.000000e+002	0.000000e+000	-2.000000e+002	0.000000e+000
91675000.000	-2.000000e+002	0.000000e+000	-7.799140e-002	-9.860887e+001	-2.000000e+002	0.000000e+000	-2.000000e+002	0.000000e+000
92293750.000	-2.000000e+002	0.000000e+000	-7.672887e-002	-9.928176e+001	-2.000000e+002	0.000000e+000	-2.000000e+002	0.000000e+000
92912500.000	-2.000000e+002	0.000000e+000	-7.803759e-002	-9.994902e+001	-2.000000e+002	0.000000e+000	-2.000000e+002	0.000000e+000
93531250.000	-2.000000e+002	0.000000e+000	-7.761609e-002	-1.005922e+002	-2.000000e+002	0.000000e+000	-2.000000e+002	0.000000e+000
94150000.000	-2.000000e+002	0.000000e+000	-7.851482e-002	-1.012727e+002	-2.000000e+002	0.000000e+000	-2.000000e+002	0.000000e+000
94768750.000	-2.000000e+002	0.000000e+000	-7.751783e-002	-1.019375e+002	-2.000000e+002	0.000000e+000	-2.000000e+002	0.000000e+000
95387500.000	-2.000000e+002	0.000000e+000	-7.966744e-002	-1.025958e+002	-2.000000e+002	0.000000e+000	-2.000000e+002	0.000000e+000
96006250.000	-2.000000e+002	0.000000e+000	-7.940856e-002	-1.032538e+002	-2.000000e+002	0.000000e+000	-2.000000e+002	0.000000e+000
96625000.000	-2.000000e+002	0.000000e+000	-8.065729e-002	-1.039246e+002	-2.000000e+002	0.000000e+000	-2.000000e+002	0.000000e+000
97243750.000	-2.000000e+002	0.000000e+000	-8.005834e-002	-1.045975e+002	-2.000000e+002	0.000000e+000	-2.000000e+002	0.000000e+000
97862500.000	-2.000000e+002	0.000000e+000	-8.004889e-002	-1.052472e+002	-2.000000e+002	0.000000e+000	-2.000000e+002	0.000000e+000
98481250.000	-2.000000e+002	0.000000e+000	-7.995163e-002	-1.059101e+002	-2.000000e+002	0.000000e+000	-2.000000e+002	0.000000e+000
99100000.000	-2.000000e+002	0.000000e+000	-8.363363e-002	-1.065798e+002	-2.000000e+002	0.000000e+000	-2.000000e+002	0.000000e+000
99718750.000	-2.000000e+002	0.000000e+000	-8.097821e-002	-1.072482e+002	-2.000000e+002	0.000000e+000	-2.000000e+002	0.000000e+000
100337500.000	-2.000000e+002	0.000000e+000	-7.932589e-002	-1.079089e+002	-2.000000e+002	0.000000e+000	-2.000000e+002	0.000000e+000
100956250.000	-2.000000e+002	0.000000e+000	-8.226264e-002	-1.085708e+002	-2.000000e+002	0.000000e+000	-2.000000e+002	0.000000e+000
101575000.000	-2.000000e+002	0.000000e+000	-8.225725e-002	-1.092426e+002	-2.000000e+002	0.000000e+000	-2.000000e+002	0.000000e+000
102193750.000	-2.000000e+002	0.000000e+000	-8.159467e-002	-1.099007e+002	-2.000000e+002	0.000000e+000	-2.000000e+002	0.000000e+000
102812500.000	-2.000000e+002	0.000000e+000	-8.262725e-002	-1.105653e+002	-2.000000e+002	0.000000e+000	-2.000000e+002	0.000000e+000
