!Keysight Technologies,E5061B,SG49100003,B.05.06
!Date: Mon Jan 06 14:03:44 2020
!Data & Calibration Information:
!Freq	S11:NONE(--)	S21:RESPT(ON)	S12:NONE(--)	S22:NONE(--)
# Hz S dB R 50
10000000.000	-2.000000e+002	0.000000e+000	-3.188314e+000	-2.123061e+001	-2.000000e+002	0.000000e+000	-2.000000e+002	0.000000e+000
10618750.000	-2.000000e+002	0.000000e+000	-3.188477e+000	-2.257155e+001	-2.000000e+002	0.000000e+000	-2.000000e+002	0.000000e+000
11237500.000	-2.000000e+002	0.000000e+000	-3.189729e+000	-2.391681e+001	-2.000000e+002	0.000000e+000	-2.000000e+002	0.000000e+000
11856250.000	-2.000000e+002	0.000000e+000	-3.192229e+000	-2.525237e+001	-2.000000e+002	0.000000e+000	-2.000000e+002	0.000000e+000
12475000.000	-2.000000e+002	0.000000e+000	-3.191420e+000	-2.658847e+001	-2.000000e+002	0.000000e+000	-2.000000e+002	0.000000e+000
13093750.000	-2.000000e+002	0.000000e+000	-3.196033e+000	-2.792258e+001	-2.000000e+002	0.000000e+000	-2.000000e+002	0.000000e+000
13712500.000	-2.000000e+002	0.000000e+000	-3.194943e+000	-2.923907e+001	-2.000000e+002	0.000000e+000	-2.000000e+002	0.000000e+000
14331250.000	-2.000000e+002	0.000000e+000	-3.197618e+000	-3.057910e+001	-2.000000e+002	0.000000e+000	-2.000000e+002	0.000000e+000
14950000.000	-2.000000e+002	0.000000e+000	-3.198462e+000	-3.191045e+001	-2.000000e+002	0.000000e+000	-2.000000e+002	0.000000e+000
15568750.000	-2.000000e+002	0.000000e+000	-3.200794e+000	-3.323249e+001	-2.000000e+002	0.000000e+000	-2.000000e+002	0.000000e+000
16187500.000	-2.000000e+002	0.000000e+000	-3.203157e+000	-3.455183e+001	-2.000000e+002	0.000000e+000	-2.000000e+002	0.000000e+000
16806250.000	-2.000000e+002	0.000000e+000	-3.205183e+000	-3.587886e+001	-2.000000e+002	0.000000e+000	-2.000000e+002	0.000000e+000
17425000.000	-2.000000e+002	0.000000e+000	-3.206401e+000	-3.720851e+001	-2.000000e+002	0.000000e+000	-2.000000e+002	0.000000e+000
18043750.000	-2.000000e+002	0.000000e+000	-3.208165e+000	-3.854202e+001	-2.000000e+002	0.000000e+000	-2.000000e+002	0.000000e+000
18662500.000	-2.000000e+002	0.000000e+000	-3.210138e+000	-3.984846e+001	-2.000000e+002	0.000000e+000	-2.000000e+002	0.000000e+000
19281250.000	-2.000000e+002	0.000000e+000	-3.211312e+000	-4.117555e+001	-2.000000e+002	0.000000e+000	-2.000000e+002	0.000000e+000
19900000.000	-2.000000e+002	0.000000e+000	-3.212092e+000	-4.250425e+001	-2.000000e+002	0.000000e+000	-2.000000e+002	0.000000e+000
20518750.000	-2.000000e+002	0.000000e+000	-3.214070e+000	-4.381620e+001	-2.000000e+002	0.000000e+000	-2.000000e+002	0.000000e+000
21137500.000	-2.000000e+002	0.000000e+000	-3.216177e+000	-4.514404e+001	-2.000000e+002	0.000000e+000	-2.000000e+002	0.000000e+000
21756250.000	-2.000000e+002	0.000000e+000	-3.216247e+000	-4.646478e+001	-2.000000e+002	0.000000e+000	-2.000000e+002	0.000000e+000
22375000.000	-2.000000e+002	0.000000e+000	-3.221084e+000	-4.777934e+001	-2.000000e+002	0.000000e+000	-2.000000e+002	0.000000e+000
22993750.000	-2.000000e+002	0.000000e+000	-3.220748e+000	-4.909883e+001	-2.000000e+002	0.000000e+000	-2.000000e+002	0.000000e+000
23612500.000	-2.000000e+002	0.000000e+000	-3.221171e+000	-5.041287e+001	-2.000000e+002	0.000000e+000	-2.000000e+002	0.000000e+000
24231250.000	-2.000000e+002	0.000000e+000	-3.223303e+000	-5.174861e+001	-2.000000e+002	0.000000e+000	-2.000000e+002	0.000000e+000
24850000.000	-2.000000e+002	0.000000e+000	-3.225508e+000	-5.305221e+001	-2.000000e+002	0.000000e+000	-2.000000e+002	0.000000e+000
25468750.000	-2.000000e+002	0.000000e+000	-3.226844e+000	-5.438704e+001	-2.000000e+002	0.000000e+000	-2.000000e+002	0.000000e+000
26087500.000	-2.000000e+002	0.000000e+000	-3.229565e+000	-5.569278e+001	-2.000000e+002	0.000000e+000	-2.000000e+002	0.000000e+000
26706250.000	-2.000000e+002	0.000000e+000	-3.229350e+000	-5.700374e+001	-2.000000e+002	0.000000e+000	-2.000000e+002	0.000000e+000
27325000.000	-2.000000e+002	0.000000e+000	-3.230022e+000	-5.832569e+001	-2.000000e+002	0.000000e+000	-2.000000e+002	0.000000e+000
27943750.000	-2.000000e+002	0.000000e+000	-3.233667e+000	-5.963899e+001	-2.000000e+002	0.000000e+000	-2.000000e+002	0.000000e+000
28562500.000	-2.000000e+002	0.000000e+000	-3.236066e+000	-6.095994e+001	-2.000000e+002	0.000000e+000	-2.000000e+002	0.000000e+000
29181250.000	-2.000000e+002	0.000000e+000	-3.236030e+000	-6.226770e+001	-2.000000e+002	0.000000e+000	-2.000000e+002	0.000000e+000
29800000.000	-2.000000e+002	0.000000e+000	-3.237537e+000	-6.358735e+001	-2.000000e+002	0.000000e+000	-2.000000e+002	0.000000e+000
30418750.000	-2.000000e+002	0.000000e+000	-3.240082e+000	-6.489766e+001	-2.000000e+002	0.000000e+000	-2.000000e+002	0.000000e+000
31037500.000	-2.000000e+002	0.000000e+000	-3.242462e+000	-6.622631e+001	-2.000000e+002	0.000000e+000	-2.000000e+002	0.000000e+000
31656250.000	-2.000000e+002	0.000000e+000	-3.243549e+000	-6.753301e+001	-2.000000e+002	0.000000e+000	-2.000000e+002	0.000000e+000
32275000.000	-2.000000e+002	0.000000e+000	-3.246036e+000	-6.885086e+001	-2.000000e+002	0.000000e+000	-2.000000e+002	0.000000e+000
32893750.000	-2.000000e+002	0.000000e+000	-3.247317e+000	-7.017766e+001	-2.000000e+002	0.000000e+000	-2.000000e+002	0.000000e+000
33512500.000	-2.000000e+002	0.000000e+000	-3.249384e+000	-7.148824e+001	-2.000000e+002	0.000000e+000	-2.000000e+002	0.000000e+000
34131250.000	-2.000000e+002	0.000000e+000	-3.249108e+000	-7.278822e+001	-2.000000e+002	0.000000e+000	-2.000000e+002	0.000000e+000
34750000.000	-2.000000e+002	0.000000e+000	-3.252523e+000	-7.411483e+001	-2.000000e+002	0.000000e+000	-2.000000e+002	0.000000e+000
35368750.000	-2.000000e+002	0.000000e+000	-3.251886e+000	-7.543385e+001	-2.000000e+002	0.000000e+000	-2.000000e+002	0.000000e+000
35987500.000	-2.000000e+002	0.000000e+000	-3.254479e+000	-7.672574e+001	-2.000000e+002	0.000000e+000	-2.000000e+002	0.000000e+000
36606250.000	-2.000000e+002	0.000000e+000	-3.255882e+000	-7.805588e+001	-2.000000e+002	0.000000e+000	-2.000000e+002	0.000000e+000
37225000.000	-2.000000e+002	0.000000e+000	-3.258251e+000	-7.936565e+001	-2.000000e+002	0.000000e+000	-2.000000e+002	0.000000e+000
37843750.000	-2.000000e+002	0.000000e+000	-3.259909e+000	-8.067223e+001	-2.000000e+002	0.000000e+000	-2.000000e+002	0.000000e+000
38462500.000	-2.000000e+002	0.000000e+000	-3.260350e+000	-8.199499e+001	-2.000000e+002	0.000000e+000	-2.000000e+002	0.000000e+000
39081250.000	-2.000000e+002	0.000000e+000	-3.261307e+000	-8.329826e+001	-2.000000e+002	0.000000e+000	-2.000000e+002	0.000000e+000
39700000.000	-2.000000e+002	0.000000e+000	-3.264368e+000	-8.461547e+001	-2.000000e+002	0.000000e+000	-2.000000e+002	0.000000e+000
40318750.000	-2.000000e+002	0.000000e+000	-3.265765e+000	-8.592883e+001	-2.000000e+002	0.000000e+000	-2.000000e+002	0.000000e+000
40937500.000	-2.000000e+002	0.000000e+000	-3.264065e+000	-8.723789e+001	-2.000000e+002	0.000000e+000	-2.000000e+002	0.000000e+000
41556250.000	-2.000000e+002	0.000000e+000	-3.268206e+000	-8.856094e+001	-2.000000e+002	0.000000e+000	-2.000000e+002	0.000000e+000
42175000.000	-2.000000e+002	0.000000e+000	-3.269302e+000	-8.986194e+001	-2.000000e+002	0.000000e+000	-2.000000e+002	0.000000e+000
42793750.000	-2.000000e+002	0.000000e+000	-3.270439e+000	-9.118666e+001	-2.000000e+002	0.000000e+000	-2.000000e+002	0.000000e+000
43412500.000	-2.000000e+002	0.000000e+000	-3.273082e+000	-9.249494e+001	-2.000000e+002	0.000000e+000	-2.000000e+002	0.000000e+000
44031250.000	-2.000000e+002	0.000000e+000	-3.273860e+000	-9.380594e+001	-2.000000e+002	0.000000e+000	-2.000000e+002	0.000000e+000
44650000.000	-2.000000e+002	0.000000e+000	-3.276223e+000	-9.510194e+001	-2.000000e+002	0.000000e+000	-2.000000e+002	0.000000e+000
45268750.000	-2.000000e+002	0.000000e+000	-3.277624e+000	-9.641687e+001	-2.000000e+002	0.000000e+000	-2.000000e+002	0.000000e+000
45887500.000	-2.000000e+002	0.000000e+000	-3.278365e+000	-9.772994e+001	-2.000000e+002	0.000000e+000	-2.000000e+002	0.000000e+000
46506250.000	-2.000000e+002	0.000000e+000	-3.280879e+000	-9.903789e+001	-2.000000e+002	0.000000e+000	-2.000000e+002	0.000000e+000
47125000.000	-2.000000e+002	0.000000e+000	-3.282050e+000	-1.003526e+002	-2.000000e+002	0.000000e+000	-2.000000e+002	0.000000e+000
47743750.000	-2.000000e+002	0.000000e+000	-3.283091e+000	-1.016572e+002	-2.000000e+002	0.000000e+000	-2.000000e+002	0.000000e+000
48362500.000	-2.000000e+002	0.000000e+000	-3.284359e+000	-1.029602e+002	-2.000000e+002	0.000000e+000	-2.000000e+002	0.000000e+000
48981250.000	-2.000000e+002	0.000000e+000	-3.285532e+000	-1.042831e+002	-2.000000e+002	0.000000e+000	-2.000000e+002	0.000000e+000
49600000.000	-2.000000e+002	0.000000e+000	-3.287777e+000	-1.055891e+002	-2.000000e+002	0.000000e+000	-2.000000e+002	0.000000e+000
50218750.000	-2.000000e+002	0.000000e+000	-3.289583e+000	-1.069015e+002	-2.000000e+002	0.000000e+000	-2.000000e+002	0.000000e+000
50837500.000	-2.000000e+002	0.000000e+000	-3.289206e+000	-1.082108e+002	-2.000000e+002	0.000000e+000	-2.000000e+002	0.000000e+000
51456250.000	-2.000000e+002	0.000000e+000	-3.290150e+000	-1.095129e+002	-2.000000e+002	0.000000e+000	-2.000000e+002	0.000000e+000
52075000.000	-2.000000e+002	0.000000e+000	-3.291612e+000	-1.108359e+002	-2.000000e+002	0.000000e+000	-2.000000e+002	0.000000e+000
52693750.000	-2.000000e+002	0.000000e+000	-3.293961e+000	-1.121456e+002	-2.000000e+002	0.000000e+000	-2.000000e+002	0.000000e+000
53312500.000	-2.000000e+002	0.000000e+000	-3.294715e+000	-1.134543e+002	-2.000000e+002	0.000000e+000	-2.000000e+002	0.000000e+000
53931250.000	-2.000000e+002	0.000000e+000	-3.295470e+000	-1.147714e+002	-2.000000e+002	0.000000e+000	-2.000000e+002	0.000000e+000
54550000.000	-2.000000e+002	0.000000e+000	-3.297731e+000	-1.160669e+002	-2.000000e+002	0.000000e+000	-2.000000e+002	0.000000e+000
55168750.000	-2.000000e+002	0.000000e+000	-3.298860e+000	-1.173794e+002	-2.000000e+002	0.000000e+000	-2.000000e+002	0.000000e+000
55787500.000	-2.000000e+002	0.000000e+000	-3.300255e+000	-1.186890e+002	-2.000000e+002	0.000000e+000	-2.000000e+002	0.000000e+000
56406250.000	-2.000000e+002	0.000000e+000	-3.302283e+000	-1.200041e+002	-2.000000e+002	0.000000e+000	-2.000000e+002	0.000000e+000
57025000.000	-2.000000e+002	0.000000e+000	-3.302193e+000	-1.213150e+002	-2.000000e+002	0.000000e+000	-2.000000e+002	0.000000e+000
57643750.000	-2.000000e+002	0.000000e+000	-3.303689e+000	-1.226242e+002	-2.000000e+002	0.000000e+000	-2.000000e+002	0.000000e+000
58262500.000	-2.000000e+002	0.000000e+000	-3.302702e+000	-1.239388e+002	-2.000000e+002	0.000000e+000	-2.000000e+002	0.000000e+000
58881250.000	-2.000000e+002	0.000000e+000	-3.308038e+000	-1.252389e+002	-2.000000e+002	0.000000e+000	-2.000000e+002	0.000000e+000
59500000.000	-2.000000e+002	0.000000e+000	-3.306396e+000	-1.265418e+002	-2.000000e+002	0.000000e+000	-2.000000e+002	0.000000e+000
60118750.000	-2.000000e+002	0.000000e+000	-3.309455e+000	-1.278519e+002	-2.000000e+002	0.000000e+000	-2.000000e+002	0.000000e+000
60737500.000	-2.000000e+002	0.000000e+000	-3.309878e+000	-1.291563e+002	-2.000000e+002	0.000000e+000	-2.000000e+002	0.000000e+000
61356250.000	-2.000000e+002	0.000000e+000	-3.310321e+000	-1.304851e+002	-2.000000e+002	0.000000e+000	-2.000000e+002	0.000000e+000
61975000.000	-2.000000e+002	0.000000e+000	-3.312592e+000	-1.317797e+002	-2.000000e+002	0.000000e+000	-2.000000e+002	0.000000e+000
62593750.000	-2.000000e+002	0.000000e+000	-3.312375e+000	-1.330873e+002	-2.000000e+002	0.000000e+000	-2.000000e+002	0.000000e+000
63212500.000	-2.000000e+002	0.000000e+000	-3.313708e+000	-1.343978e+002	-2.000000e+002	0.000000e+000	-2.000000e+002	0.000000e+000
63831250.000	-2.000000e+002	0.000000e+000	-3.315077e+000	-1.357033e+002	-2.000000e+002	0.000000e+000	-2.000000e+002	0.000000e+000
64450000.000	-2.000000e+002	0.000000e+000	-3.315139e+000	-1.370176e+002	-2.000000e+002	0.000000e+000	-2.000000e+002	0.000000e+000
65068750.000	-2.000000e+002	0.000000e+000	-3.317481e+000	-1.383301e+002	-2.000000e+002	0.000000e+000	-2.000000e+002	0.000000e+000
65687500.000	-2.000000e+002	0.000000e+000	-3.316081e+000	-1.396272e+002	-2.000000e+002	0.000000e+000	-2.000000e+002	0.000000e+000
66306250.000	-2.000000e+002	0.000000e+000	-3.320226e+000	-1.409414e+002	-2.000000e+002	0.000000e+000	-2.000000e+002	0.000000e+000
66925000.000	-2.000000e+002	0.000000e+000	-3.318917e+000	-1.422323e+002	-2.000000e+002	0.000000e+000	-2.000000e+002	0.000000e+000
67543750.000	-2.000000e+002	0.000000e+000	-3.321561e+000	-1.435727e+002	-2.000000e+002	0.000000e+000	-2.000000e+002	0.000000e+000
68162500.000	-2.000000e+002	0.000000e+000	-3.322968e+000	-1.448587e+002	-2.000000e+002	0.000000e+000	-2.000000e+002	0.000000e+000
68781250.000	-2.000000e+002	0.000000e+000	-3.323426e+000	-1.461760e+002	-2.000000e+002	0.000000e+000	-2.000000e+002	0.000000e+000
69400000.000	-2.000000e+002	0.000000e+000	-3.324350e+000	-1.474853e+002	-2.000000e+002	0.000000e+000	-2.000000e+002	0.000000e+000
70018750.000	-2.000000e+002	0.000000e+000	-3.324998e+000	-1.488002e+002	-2.000000e+002	0.000000e+000	-2.000000e+002	0.000000e+000
70637500.000	-2.000000e+002	0.000000e+000	-3.325228e+000	-1.501161e+002	-2.000000e+002	0.000000e+000	-2.000000e+002	0.000000e+000
71256250.000	-2.000000e+002	0.000000e+000	-3.327340e+000	-1.514082e+002	-2.000000e+002	0.000000e+000	-2.000000e+002	0.000000e+000
71875000.000	-2.000000e+002	0.000000e+000	-3.328705e+000	-1.527164e+002	-2.000000e+002	0.000000e+000	-2.000000e+002	0.000000e+000
72493750.000	-2.000000e+002	0.000000e+000	-3.328806e+000	-1.540300e+002	-2.000000e+002	0.000000e+000	-2.000000e+002	0.000000e+000
73112500.000	-2.000000e+002	0.000000e+000	-3.328791e+000	-1.553292e+002	-2.000000e+002	0.000000e+000	-2.000000e+002	0.000000e+000
73731250.000	-2.000000e+002	0.000000e+000	-3.330822e+000	-1.566582e+002	-2.000000e+002	0.000000e+000	-2.000000e+002	0.000000e+000
74350000.000	-2.000000e+002	0.000000e+000	-3.330969e+000	-1.579530e+002	-2.000000e+002	0.000000e+000	-2.000000e+002	0.000000e+000
74968750.000	-2.000000e+002	0.000000e+000	-3.332050e+000	-1.592653e+002	-2.000000e+002	0.000000e+000	-2.000000e+002	0.000000e+000
75587500.000	-2.000000e+002	0.000000e+000	-3.332716e+000	-1.605875e+002	-2.000000e+002	0.000000e+000	-2.000000e+002	0.000000e+000
76206250.000	-2.000000e+002	0.000000e+000	-3.334496e+000	-1.618844e+002	-2.000000e+002	0.000000e+000	-2.000000e+002	0.000000e+000
76825000.000	-2.000000e+002	0.000000e+000	-3.335518e+000	-1.631941e+002	-2.000000e+002	0.000000e+000	-2.000000e+002	0.000000e+000
77443750.000	-2.000000e+002	0.000000e+000	-3.335444e+000	-1.644967e+002	-2.000000e+002	0.000000e+000	-2.000000e+002	0.000000e+000
78062500.000	-2.000000e+002	0.000000e+000	-3.336715e+000	-1.658077e+002	-2.000000e+002	0.000000e+000	-2.000000e+002	0.000000e+000
78681250.000	-2.000000e+002	0.000000e+000	-3.338911e+000	-1.671238e+002	-2.000000e+002	0.000000e+000	-2.000000e+002	0.000000e+000
79300000.000	-2.000000e+002	0.000000e+000	-3.338451e+000	-1.684294e+002	-2.000000e+002	0.000000e+000	-2.000000e+002	0.000000e+000
79918750.000	-2.000000e+002	0.000000e+000	-3.339140e+000	-1.697384e+002	-2.000000e+002	0.000000e+000	-2.000000e+002	0.000000e+000
80537500.000	-2.000000e+002	0.000000e+000	-3.340457e+000	-1.710467e+002	-2.000000e+002	0.000000e+000	-2.000000e+002	0.000000e+000
81156250.000	-2.000000e+002	0.000000e+000	-3.341637e+000	-1.723540e+002	-2.000000e+002	0.000000e+000	-2.000000e+002	0.000000e+000
81775000.000	-2.000000e+002	0.000000e+000	-3.343421e+000	-1.736684e+002	-2.000000e+002	0.000000e+000	-2.000000e+002	0.000000e+000
82393750.000	-2.000000e+002	0.000000e+000	-3.343419e+000	-1.749791e+002	-2.000000e+002	0.000000e+000	-2.000000e+002	0.000000e+000
83012500.000	-2.000000e+002	0.000000e+000	-3.344444e+000	-1.762895e+002	-2.000000e+002	0.000000e+000	-2.000000e+002	0.000000e+000
83631250.000	-2.000000e+002	0.000000e+000	-3.345806e+000	-1.775957e+002	-2.000000e+002	0.000000e+000	-2.000000e+002	0.000000e+000
84250000.000	-2.000000e+002	0.000000e+000	-3.346684e+000	-1.789065e+002	-2.000000e+002	0.000000e+000	-2.000000e+002	0.000000e+000
84868750.000	-2.000000e+002	0.000000e+000	-3.347398e+000	1.797790e+002	-2.000000e+002	0.000000e+000	-2.000000e+002	0.000000e+000
85487500.000	-2.000000e+002	0.000000e+000	-3.348097e+000	1.784772e+002	-2.000000e+002	0.000000e+000	-2.000000e+002	0.000000e+000
86106250.000	-2.000000e+002	0.000000e+000	-3.349234e+000	1.771651e+002	-2.000000e+002	0.000000e+000	-2.000000e+002	0.000000e+000
86725000.000	-2.000000e+002	0.000000e+000	-3.348564e+000	1.758575e+002	-2.000000e+002	0.000000e+000	-2.000000e+002	0.000000e+000
87343750.000	-2.000000e+002	0.000000e+000	-3.350307e+000	1.745542e+002	-2.000000e+002	0.000000e+000	-2.000000e+002	0.000000e+000
87962500.000	-2.000000e+002	0.000000e+000	-3.352288e+000	1.732311e+002	-2.000000e+002	0.000000e+000	-2.000000e+002	0.000000e+000
88581250.000	-2.000000e+002	0.000000e+000	-3.352693e+000	1.719200e+002	-2.000000e+002	0.000000e+000	-2.000000e+002	0.000000e+000
89200000.000	-2.000000e+002	0.000000e+000	-3.353153e+000	1.706284e+002	-2.000000e+002	0.000000e+000	-2.000000e+002	0.000000e+000
89818750.000	-2.000000e+002	0.000000e+000	-3.356235e+000	1.693089e+002	-2.000000e+002	0.000000e+000	-2.000000e+002	0.000000e+000
90437500.000	-2.000000e+002	0.000000e+000	-3.354995e+000	1.679965e+002	-2.000000e+002	0.000000e+000	-2.000000e+002	0.000000e+000
91056250.000	-2.000000e+002	0.000000e+000	-3.356518e+000	1.666949e+002	-2.000000e+002	0.000000e+000	-2.000000e+002	0.000000e+000
91675000.000	-2.000000e+002	0.000000e+000	-3.359311e+000	1.653926e+002	-2.000000e+002	0.000000e+000	-2.000000e+002	0.000000e+000
92293750.000	-2.000000e+002	0.000000e+000	-3.358219e+000	1.640675e+002	-2.000000e+002	0.000000e+000	-2.000000e+002	0.000000e+000
92912500.000	-2.000000e+002	0.000000e+000	-3.361090e+000	1.627660e+002	-2.000000e+002	0.000000e+000	-2.000000e+002	0.000000e+000
93531250.000	-2.000000e+002	0.000000e+000	-3.361938e+000	1.614489e+002	-2.000000e+002	0.000000e+000	-2.000000e+002	0.000000e+000
94150000.000	-2.000000e+002	0.000000e+000	-3.363031e+000	1.601448e+002	-2.000000e+002	0.000000e+000	-2.000000e+002	0.000000e+000
94768750.000	-2.000000e+002	0.000000e+000	-3.364014e+000	1.588399e+002	-2.000000e+002	0.000000e+000	-2.000000e+002	0.000000e+000
95387500.000	-2.000000e+002	0.000000e+000	-3.365328e+000	1.575246e+002	-2.000000e+002	0.000000e+000	-2.000000e+002	0.000000e+000
96006250.000	-2.000000e+002	0.000000e+000	-3.363958e+000	1.562142e+002	-2.000000e+002	0.000000e+000	-2.000000e+002	0.000000e+000
96625000.000	-2.000000e+002	0.000000e+000	-3.366120e+000	1.549101e+002	-2.000000e+002	0.000000e+000	-2.000000e+002	0.000000e+000
97243750.000	-2.000000e+002	0.000000e+000	-3.368710e+000	1.536037e+002	-2.000000e+002	0.000000e+000	-2.000000e+002	0.000000e+000
97862500.000	-2.000000e+002	0.000000e+000	-3.369663e+000	1.522817e+002	-2.000000e+002	0.000000e+000	-2.000000e+002	0.000000e+000
98481250.000	-2.000000e+002	0.000000e+000	-3.372007e+000	1.509687e+002	-2.000000e+002	0.000000e+000	-2.000000e+002	0.000000e+000
99100000.000	-2.000000e+002	0.000000e+000	-3.370105e+000	1.496685e+002	-2.000000e+002	0.000000e+000	-2.000000e+002	0.000000e+000
99718750.000	-2.000000e+002	0.000000e+000	-3.374254e+000	1.483728e+002	-2.000000e+002	0.000000e+000	-2.000000e+002	0.000000e+000
100337500.000	-2.000000e+002	0.000000e+000	-3.373738e+000	1.470474e+002	-2.000000e+002	0.000000e+000	-2.000000e+002	0.000000e+000
100956250.000	-2.000000e+002	0.000000e+000	-3.374681e+000	1.457377e+002	-2.000000e+002	0.000000e+000	-2.000000e+002	0.000000e+000
101575000.000	-2.000000e+002	0.000000e+000	-3.375894e+000	1.444386e+002	-2.000000e+002	0.000000e+000	-2.000000e+002	0.000000e+000
102193750.000	-2.000000e+002	0.000000e+000	-3.377687e+000	1.431155e+002	-2.000000e+002	0.000000e+000	-2.000000e+002	0.000000e+000
102812500.000	-2.000000e+002	0.000000e+000	-3.378874e+000	1.418237e+002	-2.000000e+002	0.000000e+000	-2.000000e+002	0.000000e+000
