!Keysight Technologies,E5061B,SG49100003,B.05.06
!Date: Mon Jan 06 14:15:15 2020
!Data & Calibration Information:
!Freq	S11:NONE(--)	S21:RESPT(ON)	S12:NONE(--)	S22:NONE(--)
# Hz S dB R 50
10000000.000	-2.000000e+002	0.000000e+000	-3.187577e+000	-2.122254e+001	-2.000000e+002	0.000000e+000	-2.000000e+002	0.000000e+000
10618750.000	-2.000000e+002	0.000000e+000	-3.187699e+000	-2.256335e+001	-2.000000e+002	0.000000e+000	-2.000000e+002	0.000000e+000
11237500.000	-2.000000e+002	0.000000e+000	-3.188689e+000	-2.390401e+001	-2.000000e+002	0.000000e+000	-2.000000e+002	0.000000e+000
11856250.000	-2.000000e+002	0.000000e+000	-3.190977e+000	-2.525145e+001	-2.000000e+002	0.000000e+000	-2.000000e+002	0.000000e+000
12475000.000	-2.000000e+002	0.000000e+000	-3.190364e+000	-2.657406e+001	-2.000000e+002	0.000000e+000	-2.000000e+002	0.000000e+000
13093750.000	-2.000000e+002	0.000000e+000	-3.193295e+000	-2.791307e+001	-2.000000e+002	0.000000e+000	-2.000000e+002	0.000000e+000
13712500.000	-2.000000e+002	0.000000e+000	-3.194933e+000	-2.924142e+001	-2.000000e+002	0.000000e+000	-2.000000e+002	0.000000e+000
14331250.000	-2.000000e+002	0.000000e+000	-3.196734e+000	-3.057240e+001	-2.000000e+002	0.000000e+000	-2.000000e+002	0.000000e+000
14950000.000	-2.000000e+002	0.000000e+000	-3.197578e+000	-3.190364e+001	-2.000000e+002	0.000000e+000	-2.000000e+002	0.000000e+000
15568750.000	-2.000000e+002	0.000000e+000	-3.198994e+000	-3.322077e+001	-2.000000e+002	0.000000e+000	-2.000000e+002	0.000000e+000
16187500.000	-2.000000e+002	0.000000e+000	-3.202157e+000	-3.454282e+001	-2.000000e+002	0.000000e+000	-2.000000e+002	0.000000e+000
16806250.000	-2.000000e+002	0.000000e+000	-3.202880e+000	-3.586673e+001	-2.000000e+002	0.000000e+000	-2.000000e+002	0.000000e+000
17425000.000	-2.000000e+002	0.000000e+000	-3.204456e+000	-3.720618e+001	-2.000000e+002	0.000000e+000	-2.000000e+002	0.000000e+000
18043750.000	-2.000000e+002	0.000000e+000	-3.206081e+000	-3.852897e+001	-2.000000e+002	0.000000e+000	-2.000000e+002	0.000000e+000
18662500.000	-2.000000e+002	0.000000e+000	-3.207726e+000	-3.984230e+001	-2.000000e+002	0.000000e+000	-2.000000e+002	0.000000e+000
19281250.000	-2.000000e+002	0.000000e+000	-3.209203e+000	-4.116253e+001	-2.000000e+002	0.000000e+000	-2.000000e+002	0.000000e+000
19900000.000	-2.000000e+002	0.000000e+000	-3.209650e+000	-4.248562e+001	-2.000000e+002	0.000000e+000	-2.000000e+002	0.000000e+000
20518750.000	-2.000000e+002	0.000000e+000	-3.212707e+000	-4.381991e+001	-2.000000e+002	0.000000e+000	-2.000000e+002	0.000000e+000
21137500.000	-2.000000e+002	0.000000e+000	-3.213235e+000	-4.513509e+001	-2.000000e+002	0.000000e+000	-2.000000e+002	0.000000e+000
21756250.000	-2.000000e+002	0.000000e+000	-3.213698e+000	-4.647078e+001	-2.000000e+002	0.000000e+000	-2.000000e+002	0.000000e+000
22375000.000	-2.000000e+002	0.000000e+000	-3.219090e+000	-4.776558e+001	-2.000000e+002	0.000000e+000	-2.000000e+002	0.000000e+000
22993750.000	-2.000000e+002	0.000000e+000	-3.218759e+000	-4.908093e+001	-2.000000e+002	0.000000e+000	-2.000000e+002	0.000000e+000
23612500.000	-2.000000e+002	0.000000e+000	-3.220377e+000	-5.040737e+001	-2.000000e+002	0.000000e+000	-2.000000e+002	0.000000e+000
24231250.000	-2.000000e+002	0.000000e+000	-3.221973e+000	-5.174081e+001	-2.000000e+002	0.000000e+000	-2.000000e+002	0.000000e+000
24850000.000	-2.000000e+002	0.000000e+000	-3.224002e+000	-5.305134e+001	-2.000000e+002	0.000000e+000	-2.000000e+002	0.000000e+000
25468750.000	-2.000000e+002	0.000000e+000	-3.223464e+000	-5.437672e+001	-2.000000e+002	0.000000e+000	-2.000000e+002	0.000000e+000
26087500.000	-2.000000e+002	0.000000e+000	-3.227703e+000	-5.567811e+001	-2.000000e+002	0.000000e+000	-2.000000e+002	0.000000e+000
26706250.000	-2.000000e+002	0.000000e+000	-3.226141e+000	-5.701073e+001	-2.000000e+002	0.000000e+000	-2.000000e+002	0.000000e+000
27325000.000	-2.000000e+002	0.000000e+000	-3.228789e+000	-5.832078e+001	-2.000000e+002	0.000000e+000	-2.000000e+002	0.000000e+000
27943750.000	-2.000000e+002	0.000000e+000	-3.231658e+000	-5.962404e+001	-2.000000e+002	0.000000e+000	-2.000000e+002	0.000000e+000
28562500.000	-2.000000e+002	0.000000e+000	-3.234834e+000	-6.095231e+001	-2.000000e+002	0.000000e+000	-2.000000e+002	0.000000e+000
29181250.000	-2.000000e+002	0.000000e+000	-3.235857e+000	-6.226032e+001	-2.000000e+002	0.000000e+000	-2.000000e+002	0.000000e+000
29800000.000	-2.000000e+002	0.000000e+000	-3.235431e+000	-6.357365e+001	-2.000000e+002	0.000000e+000	-2.000000e+002	0.000000e+000
30418750.000	-2.000000e+002	0.000000e+000	-3.237590e+000	-6.490089e+001	-2.000000e+002	0.000000e+000	-2.000000e+002	0.000000e+000
31037500.000	-2.000000e+002	0.000000e+000	-3.239881e+000	-6.622123e+001	-2.000000e+002	0.000000e+000	-2.000000e+002	0.000000e+000
31656250.000	-2.000000e+002	0.000000e+000	-3.240571e+000	-6.752766e+001	-2.000000e+002	0.000000e+000	-2.000000e+002	0.000000e+000
32275000.000	-2.000000e+002	0.000000e+000	-3.243321e+000	-6.884334e+001	-2.000000e+002	0.000000e+000	-2.000000e+002	0.000000e+000
32893750.000	-2.000000e+002	0.000000e+000	-3.242735e+000	-7.016193e+001	-2.000000e+002	0.000000e+000	-2.000000e+002	0.000000e+000
33512500.000	-2.000000e+002	0.000000e+000	-3.244962e+000	-7.147876e+001	-2.000000e+002	0.000000e+000	-2.000000e+002	0.000000e+000
34131250.000	-2.000000e+002	0.000000e+000	-3.246502e+000	-7.278751e+001	-2.000000e+002	0.000000e+000	-2.000000e+002	0.000000e+000
34750000.000	-2.000000e+002	0.000000e+000	-3.249753e+000	-7.411433e+001	-2.000000e+002	0.000000e+000	-2.000000e+002	0.000000e+000
35368750.000	-2.000000e+002	0.000000e+000	-3.250936e+000	-7.542769e+001	-2.000000e+002	0.000000e+000	-2.000000e+002	0.000000e+000
35987500.000	-2.000000e+002	0.000000e+000	-3.252180e+000	-7.672418e+001	-2.000000e+002	0.000000e+000	-2.000000e+002	0.000000e+000
36606250.000	-2.000000e+002	0.000000e+000	-3.252432e+000	-7.804860e+001	-2.000000e+002	0.000000e+000	-2.000000e+002	0.000000e+000
37225000.000	-2.000000e+002	0.000000e+000	-3.253726e+000	-7.935864e+001	-2.000000e+002	0.000000e+000	-2.000000e+002	0.000000e+000
37843750.000	-2.000000e+002	0.000000e+000	-3.256112e+000	-8.067111e+001	-2.000000e+002	0.000000e+000	-2.000000e+002	0.000000e+000
38462500.000	-2.000000e+002	0.000000e+000	-3.257489e+000	-8.199863e+001	-2.000000e+002	0.000000e+000	-2.000000e+002	0.000000e+000
39081250.000	-2.000000e+002	0.000000e+000	-3.257971e+000	-8.330017e+001	-2.000000e+002	0.000000e+000	-2.000000e+002	0.000000e+000
39700000.000	-2.000000e+002	0.000000e+000	-3.260368e+000	-8.461855e+001	-2.000000e+002	0.000000e+000	-2.000000e+002	0.000000e+000
40318750.000	-2.000000e+002	0.000000e+000	-3.264114e+000	-8.592706e+001	-2.000000e+002	0.000000e+000	-2.000000e+002	0.000000e+000
40937500.000	-2.000000e+002	0.000000e+000	-3.263238e+000	-8.724455e+001	-2.000000e+002	0.000000e+000	-2.000000e+002	0.000000e+000
41556250.000	-2.000000e+002	0.000000e+000	-3.264125e+000	-8.854985e+001	-2.000000e+002	0.000000e+000	-2.000000e+002	0.000000e+000
42175000.000	-2.000000e+002	0.000000e+000	-3.267034e+000	-8.985630e+001	-2.000000e+002	0.000000e+000	-2.000000e+002	0.000000e+000
42793750.000	-2.000000e+002	0.000000e+000	-3.267585e+000	-9.118078e+001	-2.000000e+002	0.000000e+000	-2.000000e+002	0.000000e+000
43412500.000	-2.000000e+002	0.000000e+000	-3.269943e+000	-9.249729e+001	-2.000000e+002	0.000000e+000	-2.000000e+002	0.000000e+000
44031250.000	-2.000000e+002	0.000000e+000	-3.271544e+000	-9.380900e+001	-2.000000e+002	0.000000e+000	-2.000000e+002	0.000000e+000
44650000.000	-2.000000e+002	0.000000e+000	-3.272648e+000	-9.510902e+001	-2.000000e+002	0.000000e+000	-2.000000e+002	0.000000e+000
45268750.000	-2.000000e+002	0.000000e+000	-3.275510e+000	-9.642302e+001	-2.000000e+002	0.000000e+000	-2.000000e+002	0.000000e+000
45887500.000	-2.000000e+002	0.000000e+000	-3.275035e+000	-9.773494e+001	-2.000000e+002	0.000000e+000	-2.000000e+002	0.000000e+000
46506250.000	-2.000000e+002	0.000000e+000	-3.278746e+000	-9.904638e+001	-2.000000e+002	0.000000e+000	-2.000000e+002	0.000000e+000
47125000.000	-2.000000e+002	0.000000e+000	-3.279875e+000	-1.003548e+002	-2.000000e+002	0.000000e+000	-2.000000e+002	0.000000e+000
47743750.000	-2.000000e+002	0.000000e+000	-3.280744e+000	-1.016565e+002	-2.000000e+002	0.000000e+000	-2.000000e+002	0.000000e+000
48362500.000	-2.000000e+002	0.000000e+000	-3.282270e+000	-1.029649e+002	-2.000000e+002	0.000000e+000	-2.000000e+002	0.000000e+000
48981250.000	-2.000000e+002	0.000000e+000	-3.282140e+000	-1.042961e+002	-2.000000e+002	0.000000e+000	-2.000000e+002	0.000000e+000
49600000.000	-2.000000e+002	0.000000e+000	-3.283882e+000	-1.055946e+002	-2.000000e+002	0.000000e+000	-2.000000e+002	0.000000e+000
50218750.000	-2.000000e+002	0.000000e+000	-3.285870e+000	-1.069086e+002	-2.000000e+002	0.000000e+000	-2.000000e+002	0.000000e+000
50837500.000	-2.000000e+002	0.000000e+000	-3.285494e+000	-1.082023e+002	-2.000000e+002	0.000000e+000	-2.000000e+002	0.000000e+000
51456250.000	-2.000000e+002	0.000000e+000	-3.287986e+000	-1.095229e+002	-2.000000e+002	0.000000e+000	-2.000000e+002	0.000000e+000
52075000.000	-2.000000e+002	0.000000e+000	-3.287944e+000	-1.108349e+002	-2.000000e+002	0.000000e+000	-2.000000e+002	0.000000e+000
52693750.000	-2.000000e+002	0.000000e+000	-3.291705e+000	-1.121486e+002	-2.000000e+002	0.000000e+000	-2.000000e+002	0.000000e+000
53312500.000	-2.000000e+002	0.000000e+000	-3.291508e+000	-1.134545e+002	-2.000000e+002	0.000000e+000	-2.000000e+002	0.000000e+000
53931250.000	-2.000000e+002	0.000000e+000	-3.293740e+000	-1.147660e+002	-2.000000e+002	0.000000e+000	-2.000000e+002	0.000000e+000
54550000.000	-2.000000e+002	0.000000e+000	-3.294538e+000	-1.160777e+002	-2.000000e+002	0.000000e+000	-2.000000e+002	0.000000e+000
55168750.000	-2.000000e+002	0.000000e+000	-3.295121e+000	-1.173829e+002	-2.000000e+002	0.000000e+000	-2.000000e+002	0.000000e+000
55787500.000	-2.000000e+002	0.000000e+000	-3.296413e+000	-1.186992e+002	-2.000000e+002	0.000000e+000	-2.000000e+002	0.000000e+000
56406250.000	-2.000000e+002	0.000000e+000	-3.296689e+000	-1.200099e+002	-2.000000e+002	0.000000e+000	-2.000000e+002	0.000000e+000
57025000.000	-2.000000e+002	0.000000e+000	-3.299950e+000	-1.213169e+002	-2.000000e+002	0.000000e+000	-2.000000e+002	0.000000e+000
57643750.000	-2.000000e+002	0.000000e+000	-3.300575e+000	-1.226250e+002	-2.000000e+002	0.000000e+000	-2.000000e+002	0.000000e+000
58262500.000	-2.000000e+002	0.000000e+000	-3.301236e+000	-1.239313e+002	-2.000000e+002	0.000000e+000	-2.000000e+002	0.000000e+000
58881250.000	-2.000000e+002	0.000000e+000	-3.303481e+000	-1.252496e+002	-2.000000e+002	0.000000e+000	-2.000000e+002	0.000000e+000
59500000.000	-2.000000e+002	0.000000e+000	-3.303204e+000	-1.265555e+002	-2.000000e+002	0.000000e+000	-2.000000e+002	0.000000e+000
60118750.000	-2.000000e+002	0.000000e+000	-3.305076e+000	-1.278554e+002	-2.000000e+002	0.000000e+000	-2.000000e+002	0.000000e+000
60737500.000	-2.000000e+002	0.000000e+000	-3.306065e+000	-1.291655e+002	-2.000000e+002	0.000000e+000	-2.000000e+002	0.000000e+000
61356250.000	-2.000000e+002	0.000000e+000	-3.307611e+000	-1.304858e+002	-2.000000e+002	0.000000e+000	-2.000000e+002	0.000000e+000
61975000.000	-2.000000e+002	0.000000e+000	-3.311197e+000	-1.317936e+002	-2.000000e+002	0.000000e+000	-2.000000e+002	0.000000e+000
62593750.000	-2.000000e+002	0.000000e+000	-3.310811e+000	-1.331017e+002	-2.000000e+002	0.000000e+000	-2.000000e+002	0.000000e+000
63212500.000	-2.000000e+002	0.000000e+000	-3.311848e+000	-1.344039e+002	-2.000000e+002	0.000000e+000	-2.000000e+002	0.000000e+000
63831250.000	-2.000000e+002	0.000000e+000	-3.311291e+000	-1.357133e+002	-2.000000e+002	0.000000e+000	-2.000000e+002	0.000000e+000
64450000.000	-2.000000e+002	0.000000e+000	-3.312478e+000	-1.370250e+002	-2.000000e+002	0.000000e+000	-2.000000e+002	0.000000e+000
65068750.000	-2.000000e+002	0.000000e+000	-3.314058e+000	-1.383414e+002	-2.000000e+002	0.000000e+000	-2.000000e+002	0.000000e+000
65687500.000	-2.000000e+002	0.000000e+000	-3.313838e+000	-1.396286e+002	-2.000000e+002	0.000000e+000	-2.000000e+002	0.000000e+000
66306250.000	-2.000000e+002	0.000000e+000	-3.315395e+000	-1.409533e+002	-2.000000e+002	0.000000e+000	-2.000000e+002	0.000000e+000
66925000.000	-2.000000e+002	0.000000e+000	-3.317804e+000	-1.422586e+002	-2.000000e+002	0.000000e+000	-2.000000e+002	0.000000e+000
67543750.000	-2.000000e+002	0.000000e+000	-3.316233e+000	-1.435621e+002	-2.000000e+002	0.000000e+000	-2.000000e+002	0.000000e+000
68162500.000	-2.000000e+002	0.000000e+000	-3.319842e+000	-1.448674e+002	-2.000000e+002	0.000000e+000	-2.000000e+002	0.000000e+000
68781250.000	-2.000000e+002	0.000000e+000	-3.320420e+000	-1.461921e+002	-2.000000e+002	0.000000e+000	-2.000000e+002	0.000000e+000
69400000.000	-2.000000e+002	0.000000e+000	-3.322067e+000	-1.474925e+002	-2.000000e+002	0.000000e+000	-2.000000e+002	0.000000e+000
70018750.000	-2.000000e+002	0.000000e+000	-3.322669e+000	-1.487958e+002	-2.000000e+002	0.000000e+000	-2.000000e+002	0.000000e+000
70637500.000	-2.000000e+002	0.000000e+000	-3.322119e+000	-1.501087e+002	-2.000000e+002	0.000000e+000	-2.000000e+002	0.000000e+000
71256250.000	-2.000000e+002	0.000000e+000	-3.325507e+000	-1.514180e+002	-2.000000e+002	0.000000e+000	-2.000000e+002	0.000000e+000
71875000.000	-2.000000e+002	0.000000e+000	-3.324256e+000	-1.527244e+002	-2.000000e+002	0.000000e+000	-2.000000e+002	0.000000e+000
72493750.000	-2.000000e+002	0.000000e+000	-3.326402e+000	-1.540377e+002	-2.000000e+002	0.000000e+000	-2.000000e+002	0.000000e+000
73112500.000	-2.000000e+002	0.000000e+000	-3.326290e+000	-1.553537e+002	-2.000000e+002	0.000000e+000	-2.000000e+002	0.000000e+000
73731250.000	-2.000000e+002	0.000000e+000	-3.326506e+000	-1.566574e+002	-2.000000e+002	0.000000e+000	-2.000000e+002	0.000000e+000
74350000.000	-2.000000e+002	0.000000e+000	-3.328136e+000	-1.579695e+002	-2.000000e+002	0.000000e+000	-2.000000e+002	0.000000e+000
74968750.000	-2.000000e+002	0.000000e+000	-3.329836e+000	-1.592807e+002	-2.000000e+002	0.000000e+000	-2.000000e+002	0.000000e+000
75587500.000	-2.000000e+002	0.000000e+000	-3.331119e+000	-1.605921e+002	-2.000000e+002	0.000000e+000	-2.000000e+002	0.000000e+000
76206250.000	-2.000000e+002	0.000000e+000	-3.332448e+000	-1.618968e+002	-2.000000e+002	0.000000e+000	-2.000000e+002	0.000000e+000
76825000.000	-2.000000e+002	0.000000e+000	-3.330542e+000	-1.632040e+002	-2.000000e+002	0.000000e+000	-2.000000e+002	0.000000e+000
77443750.000	-2.000000e+002	0.000000e+000	-3.333235e+000	-1.645151e+002	-2.000000e+002	0.000000e+000	-2.000000e+002	0.000000e+000
78062500.000	-2.000000e+002	0.000000e+000	-3.334389e+000	-1.658174e+002	-2.000000e+002	0.000000e+000	-2.000000e+002	0.000000e+000
78681250.000	-2.000000e+002	0.000000e+000	-3.336818e+000	-1.671234e+002	-2.000000e+002	0.000000e+000	-2.000000e+002	0.000000e+000
79300000.000	-2.000000e+002	0.000000e+000	-3.335545e+000	-1.684356e+002	-2.000000e+002	0.000000e+000	-2.000000e+002	0.000000e+000
79918750.000	-2.000000e+002	0.000000e+000	-3.337020e+000	-1.697480e+002	-2.000000e+002	0.000000e+000	-2.000000e+002	0.000000e+000
80537500.000	-2.000000e+002	0.000000e+000	-3.337741e+000	-1.710601e+002	-2.000000e+002	0.000000e+000	-2.000000e+002	0.000000e+000
81156250.000	-2.000000e+002	0.000000e+000	-3.339701e+000	-1.723742e+002	-2.000000e+002	0.000000e+000	-2.000000e+002	0.000000e+000
81775000.000	-2.000000e+002	0.000000e+000	-3.340663e+000	-1.736828e+002	-2.000000e+002	0.000000e+000	-2.000000e+002	0.000000e+000
82393750.000	-2.000000e+002	0.000000e+000	-3.340996e+000	-1.749884e+002	-2.000000e+002	0.000000e+000	-2.000000e+002	0.000000e+000
83012500.000	-2.000000e+002	0.000000e+000	-3.341745e+000	-1.762983e+002	-2.000000e+002	0.000000e+000	-2.000000e+002	0.000000e+000
83631250.000	-2.000000e+002	0.000000e+000	-3.342521e+000	-1.776069e+002	-2.000000e+002	0.000000e+000	-2.000000e+002	0.000000e+000
84250000.000	-2.000000e+002	0.000000e+000	-3.343807e+000	-1.789131e+002	-2.000000e+002	0.000000e+000	-2.000000e+002	0.000000e+000
84868750.000	-2.000000e+002	0.000000e+000	-3.345483e+000	1.797854e+002	-2.000000e+002	0.000000e+000	-2.000000e+002	0.000000e+000
85487500.000	-2.000000e+002	0.000000e+000	-3.346105e+000	1.784608e+002	-2.000000e+002	0.000000e+000	-2.000000e+002	0.000000e+000
86106250.000	-2.000000e+002	0.000000e+000	-3.347819e+000	1.771457e+002	-2.000000e+002	0.000000e+000	-2.000000e+002	0.000000e+000
86725000.000	-2.000000e+002	0.000000e+000	-3.347434e+000	1.758479e+002	-2.000000e+002	0.000000e+000	-2.000000e+002	0.000000e+000
87343750.000	-2.000000e+002	0.000000e+000	-3.348345e+000	1.745411e+002	-2.000000e+002	0.000000e+000	-2.000000e+002	0.000000e+000
87962500.000	-2.000000e+002	0.000000e+000	-3.351288e+000	1.732239e+002	-2.000000e+002	0.000000e+000	-2.000000e+002	0.000000e+000
88581250.000	-2.000000e+002	0.000000e+000	-3.351507e+000	1.719067e+002	-2.000000e+002	0.000000e+000	-2.000000e+002	0.000000e+000
89200000.000	-2.000000e+002	0.000000e+000	-3.350749e+000	1.705982e+002	-2.000000e+002	0.000000e+000	-2.000000e+002	0.000000e+000
89818750.000	-2.000000e+002	0.000000e+000	-3.354228e+000	1.692903e+002	-2.000000e+002	0.000000e+000	-2.000000e+002	0.000000e+000
90437500.000	-2.000000e+002	0.000000e+000	-3.352074e+000	1.679866e+002	-2.000000e+002	0.000000e+000	-2.000000e+002	0.000000e+000
91056250.000	-2.000000e+002	0.000000e+000	-3.354217e+000	1.666841e+002	-2.000000e+002	0.000000e+000	-2.000000e+002	0.000000e+000
91675000.000	-2.000000e+002	0.000000e+000	-3.356108e+000	1.653731e+002	-2.000000e+002	0.000000e+000	-2.000000e+002	0.000000e+000
92293750.000	-2.000000e+002	0.000000e+000	-3.356507e+000	1.640567e+002	-2.000000e+002	0.000000e+000	-2.000000e+002	0.000000e+000
92912500.000	-2.000000e+002	0.000000e+000	-3.357686e+000	1.627558e+002	-2.000000e+002	0.000000e+000	-2.000000e+002	0.000000e+000
93531250.000	-2.000000e+002	0.000000e+000	-3.358212e+000	1.614399e+002	-2.000000e+002	0.000000e+000	-2.000000e+002	0.000000e+000
94150000.000	-2.000000e+002	0.000000e+000	-3.359696e+000	1.601310e+002	-2.000000e+002	0.000000e+000	-2.000000e+002	0.000000e+000
94768750.000	-2.000000e+002	0.000000e+000	-3.362571e+000	1.588246e+002	-2.000000e+002	0.000000e+000	-2.000000e+002	0.000000e+000
95387500.000	-2.000000e+002	0.000000e+000	-3.361328e+000	1.575141e+002	-2.000000e+002	0.000000e+000	-2.000000e+002	0.000000e+000
96006250.000	-2.000000e+002	0.000000e+000	-3.362470e+000	1.561947e+002	-2.000000e+002	0.000000e+000	-2.000000e+002	0.000000e+000
96625000.000	-2.000000e+002	0.000000e+000	-3.363154e+000	1.548936e+002	-2.000000e+002	0.000000e+000	-2.000000e+002	0.000000e+000
97243750.000	-2.000000e+002	0.000000e+000	-3.365643e+000	1.535828e+002	-2.000000e+002	0.000000e+000	-2.000000e+002	0.000000e+000
97862500.000	-2.000000e+002	0.000000e+000	-3.367638e+000	1.522684e+002	-2.000000e+002	0.000000e+000	-2.000000e+002	0.000000e+000
98481250.000	-2.000000e+002	0.000000e+000	-3.368994e+000	1.509570e+002	-2.000000e+002	0.000000e+000	-2.000000e+002	0.000000e+000
99100000.000	-2.000000e+002	0.000000e+000	-3.368843e+000	1.496550e+002	-2.000000e+002	0.000000e+000	-2.000000e+002	0.000000e+000
99718750.000	-2.000000e+002	0.000000e+000	-3.372147e+000	1.483594e+002	-2.000000e+002	0.000000e+000	-2.000000e+002	0.000000e+000
100337500.000	-2.000000e+002	0.000000e+000	-3.370681e+000	1.470324e+002	-2.000000e+002	0.000000e+000	-2.000000e+002	0.000000e+000
100956250.000	-2.000000e+002	0.000000e+000	-3.371781e+000	1.457217e+002	-2.000000e+002	0.000000e+000	-2.000000e+002	0.000000e+000
101575000.000	-2.000000e+002	0.000000e+000	-3.372359e+000	1.444214e+002	-2.000000e+002	0.000000e+000	-2.000000e+002	0.000000e+000
102193750.000	-2.000000e+002	0.000000e+000	-3.374303e+000	1.431039e+002	-2.000000e+002	0.000000e+000	-2.000000e+002	0.000000e+000
102812500.000	-2.000000e+002	0.000000e+000	-3.376885e+000	1.418011e+002	-2.000000e+002	0.000000e+000	-2.000000e+002	0.000000e+000
