!Keysight Technologies,E5061B,SG49100003,B.05.06
!Date: Tue Jan 07 17:33:23 2020
!Data & Calibration Information:
!Freq	S11:SOLT2(ON)	S21:SOLT2(ON)	S12:SOLT2(ON)	S22:SOLT2(ON)
# Hz S RI R 50
10000000.000	-1.163521e-002	1.616765e-002	6.482010e-001	-2.481323e-001	6.475568e-001	-2.479128e-001	-1.310849e-002	1.534744e-002
10493750.000	-1.128972e-002	1.610536e-002	6.434816e-001	-2.601387e-001	6.427922e-001	-2.598222e-001	-1.282865e-002	1.493939e-002
10987500.000	-1.084634e-002	1.596895e-002	6.383668e-001	-2.720529e-001	6.376850e-001	-2.716860e-001	-1.260788e-002	1.460911e-002
11481250.000	-1.043925e-002	1.595624e-002	6.333375e-001	-2.836531e-001	6.327797e-001	-2.832884e-001	-1.242428e-002	1.436816e-002
11975000.000	-1.005420e-002	1.598573e-002	6.278417e-001	-2.952444e-001	6.272835e-001	-2.948814e-001	-1.217033e-002	1.424019e-002
12468750.000	-9.726119e-003	1.598102e-002	6.222221e-001	-3.066400e-001	6.215351e-001	-3.062711e-001	-1.207837e-002	1.406228e-002
12962500.000	-9.315991e-003	1.598055e-002	6.165252e-001	-3.179567e-001	6.156048e-001	-3.175130e-001	-1.191102e-002	1.390310e-002
13456250.000	-9.008997e-003	1.585950e-002	6.103345e-001	-3.290892e-001	6.096220e-001	-3.288247e-001	-1.177858e-002	1.381144e-002
13950000.000	-8.570636e-003	1.592957e-002	6.041396e-001	-3.404652e-001	6.033270e-001	-3.397413e-001	-1.169136e-002	1.369678e-002
14443750.000	-8.180458e-003	1.590375e-002	5.977809e-001	-3.511417e-001	5.969824e-001	-3.507953e-001	-1.143156e-002	1.358159e-002
14937500.000	-7.832452e-003	1.588752e-002	5.911674e-001	-3.619798e-001	5.903723e-001	-3.615452e-001	-1.127007e-002	1.354207e-002
15431250.000	-7.478911e-003	1.588639e-002	5.842707e-001	-3.727221e-001	5.835856e-001	-3.723710e-001	-1.105961e-002	1.342527e-002
15925000.000	-7.093325e-003	1.580172e-002	5.771630e-001	-3.835510e-001	5.764848e-001	-3.827796e-001	-1.077480e-002	1.325364e-002
16418750.000	-6.593823e-003	1.570669e-002	5.702130e-001	-3.936928e-001	5.693363e-001	-3.933153e-001	-1.057056e-002	1.306374e-002
16912500.000	-6.209354e-003	1.572985e-002	5.628612e-001	-4.040706e-001	5.620134e-001	-4.035466e-001	-1.039133e-002	1.292377e-002
17406250.000	-5.801923e-003	1.576547e-002	5.551959e-001	-4.142022e-001	5.543524e-001	-4.137339e-001	-1.009298e-002	1.284382e-002
17900000.000	-5.404885e-003	1.561564e-002	5.475367e-001	-4.241775e-001	5.468543e-001	-4.236762e-001	-9.883033e-003	1.268467e-002
18393750.000	-5.023927e-003	1.557636e-002	5.395110e-001	-4.340826e-001	5.389467e-001	-4.335314e-001	-9.692597e-003	1.252160e-002
18887500.000	-4.490257e-003	1.551882e-002	5.315268e-001	-4.438788e-001	5.307371e-001	-4.430444e-001	-9.483664e-003	1.233806e-002
19381250.000	-4.138257e-003	1.542687e-002	5.231552e-001	-4.533916e-001	5.225096e-001	-4.527329e-001	-9.238426e-003	1.201580e-002
19875000.000	-3.763860e-003	1.528739e-002	5.147851e-001	-4.628043e-001	5.142127e-001	-4.621486e-001	-9.053339e-003	1.192381e-002
20368750.000	-3.356876e-003	1.519968e-002	5.061177e-001	-4.720772e-001	5.056058e-001	-4.714128e-001	-8.887898e-003	1.171376e-002
20862500.000	-2.925320e-003	1.515962e-002	4.975046e-001	-4.810305e-001	4.969891e-001	-4.804301e-001	-8.751752e-003	1.163732e-002
21356250.000	-2.620821e-003	1.507046e-002	4.886264e-001	-4.900499e-001	4.879379e-001	-4.892842e-001	-8.626581e-003	1.156583e-002
21850000.000	-2.284942e-003	1.496019e-002	4.794869e-001	-4.987165e-001	4.789674e-001	-4.981049e-001	-8.459202e-003	1.145880e-002
22343750.000	-1.904120e-003	1.479454e-002	4.703061e-001	-5.072738e-001	4.697630e-001	-5.067565e-001	-8.317811e-003	1.123065e-002
22837500.000	-1.552473e-003	1.477475e-002	4.609722e-001	-5.157311e-001	4.604596e-001	-5.150063e-001	-8.189495e-003	1.121323e-002
23331250.000	-1.203061e-003	1.466417e-002	4.513687e-001	-5.240798e-001	4.507407e-001	-5.233791e-001	-8.087321e-003	1.116597e-002
23825000.000	-8.435134e-004	1.454017e-002	4.416605e-001	-5.320355e-001	4.412694e-001	-5.313417e-001	-7.932453e-003	1.105924e-002
24318750.000	-5.044287e-004	1.450610e-002	4.318804e-001	-5.398967e-001	4.312382e-001	-5.392040e-001	-7.890096e-003	1.108518e-002
24812500.000	-1.984758e-004	1.433382e-002	4.218881e-001	-5.475986e-001	4.213101e-001	-5.469308e-001	-7.732681e-003	1.098957e-002
25306250.000	1.564352e-004	1.426682e-002	4.118195e-001	-5.549630e-001	4.113401e-001	-5.542297e-001	-7.734352e-003	1.098674e-002
25800000.000	4.623347e-004	1.417805e-002	4.017124e-001	-5.623915e-001	4.010836e-001	-5.617030e-001	-7.639941e-003	1.099390e-002
26293750.000	7.991365e-004	1.404852e-002	3.911484e-001	-5.696486e-001	3.908265e-001	-5.688618e-001	-7.580260e-003	1.094551e-002
26787500.000	1.057728e-003	1.395285e-002	3.807704e-001	-5.765822e-001	3.802462e-001	-5.757025e-001	-7.416871e-003	1.094416e-002
27281250.000	1.420041e-003	1.389952e-002	3.702128e-001	-5.833640e-001	3.696854e-001	-5.825960e-001	-7.372990e-003	1.095352e-002
27775000.000	1.727675e-003	1.367506e-002	3.594725e-001	-5.899495e-001	3.590771e-001	-5.891549e-001	-7.232939e-003	1.093342e-002
28268750.000	1.982235e-003	1.358696e-002	3.486269e-001	-5.962499e-001	3.482868e-001	-5.955212e-001	-7.154560e-003	1.091316e-002
28762500.000	2.372870e-003	1.345678e-002	3.376164e-001	-6.025437e-001	3.372583e-001	-6.016230e-001	-7.114256e-003	1.081016e-002
29256250.000	2.679058e-003	1.331558e-002	3.266020e-001	-6.085157e-001	3.263730e-001	-6.076632e-001	-6.962822e-003	1.092432e-002
29750000.000	2.934313e-003	1.319519e-002	3.155501e-001	-6.142026e-001	3.151161e-001	-6.132592e-001	-6.852833e-003	1.081543e-002
30243750.000	3.324467e-003	1.309250e-002	3.042125e-001	-6.195668e-001	3.038688e-001	-6.187511e-001	-6.806023e-003	1.099792e-002
30737500.000	3.593692e-003	1.298168e-002	2.930144e-001	-6.250607e-001	2.926568e-001	-6.241372e-001	-6.756307e-003	1.096341e-002
31231250.000	3.864179e-003	1.282630e-002	2.813640e-001	-6.300331e-001	2.813550e-001	-6.292585e-001	-6.631038e-003	1.088316e-002
31725000.000	4.193983e-003	1.260639e-002	2.700135e-001	-6.350437e-001	2.698947e-001	-6.342538e-001	-6.509363e-003	1.106304e-002
32218750.000	4.526147e-003	1.241955e-002	2.584582e-001	-6.396203e-001	2.582521e-001	-6.389705e-001	-6.433880e-003	1.094575e-002
32712500.000	4.765077e-003	1.222432e-002	2.468546e-001	-6.441910e-001	2.465328e-001	-6.433921e-001	-6.322492e-003	1.100233e-002
33206250.000	5.073323e-003	1.206587e-002	2.347978e-001	-6.484264e-001	2.348469e-001	-6.477127e-001	-6.204272e-003	1.099885e-002
33700000.000	5.402578e-003	1.199310e-002	2.231414e-001	-6.527529e-001	2.230361e-001	-6.517855e-001	-6.128801e-003	1.099799e-002
34193750.000	5.630576e-003	1.179079e-002	2.112802e-001	-6.564573e-001	2.111644e-001	-6.556309e-001	-6.027187e-003	1.103783e-002
34687500.000	6.020695e-003	1.159432e-002	1.993152e-001	-6.599845e-001	1.990397e-001	-6.590871e-001	-5.953504e-003	1.109854e-002
35181250.000	6.246879e-003	1.147181e-002	1.872740e-001	-6.636178e-001	1.870239e-001	-6.627489e-001	-5.794546e-003	1.111530e-002
35675000.000	6.612971e-003	1.123882e-002	1.752219e-001	-6.667847e-001	1.750789e-001	-6.658491e-001	-5.756432e-003	1.106192e-002
36168750.000	6.831339e-003	1.105232e-002	1.629878e-001	-6.698527e-001	1.630212e-001	-6.689869e-001	-5.730305e-003	1.112247e-002
36662500.000	7.169226e-003	1.083247e-002	1.507240e-001	-6.724872e-001	1.507246e-001	-6.714579e-001	-5.489860e-003	1.118029e-002
37156250.000	7.333490e-003	1.057354e-002	1.384109e-001	-6.750831e-001	1.386780e-001	-6.742484e-001	-5.396360e-003	1.113465e-002
37650000.000	7.663092e-003	1.047130e-002	1.262924e-001	-6.774012e-001	1.263509e-001	-6.764746e-001	-5.303323e-003	1.114164e-002
38143750.000	7.953476e-003	1.015824e-002	1.140745e-001	-6.795038e-001	1.139222e-001	-6.784893e-001	-5.039407e-003	1.131099e-002
38637500.000	8.239284e-003	9.974609e-003	1.018496e-001	-6.814022e-001	1.016847e-001	-6.804166e-001	-5.042080e-003	1.131636e-002
39131250.000	8.523742e-003	9.776672e-003	8.938948e-002	-6.829958e-001	8.936168e-002	-6.820887e-001	-4.997560e-003	1.129499e-002
39625000.000	8.768161e-003	9.565500e-003	7.696881e-002	-6.843540e-001	7.690655e-002	-6.834935e-001	-4.873895e-003	1.146987e-002
40118750.000	9.015361e-003	9.387156e-003	6.447749e-002	-6.856530e-001	6.463664e-002	-6.846817e-001	-4.620420e-003	1.135514e-002
40612500.000	9.245710e-003	9.203208e-003	5.226093e-002	-6.864866e-001	5.211864e-002	-6.856405e-001	-4.607214e-003	1.147437e-002
41106250.000	9.501022e-003	8.796951e-003	3.972375e-002	-6.874018e-001	3.978179e-002	-6.863929e-001	-4.358430e-003	1.149547e-002
41600000.000	9.707501e-003	8.518420e-003	2.712812e-002	-6.879261e-001	2.733983e-002	-6.868775e-001	-4.338304e-003	1.158270e-002
42093750.000	1.005349e-002	8.412553e-003	1.481961e-002	-6.881730e-001	1.483911e-002	-6.871336e-001	-4.014148e-003	1.166234e-002
42587500.000	1.029489e-002	8.128435e-003	2.374610e-003	-6.881387e-001	2.242102e-003	-6.871269e-001	-3.926377e-003	1.167766e-002
43081250.000	1.055118e-002	7.867622e-003	-1.015139e-002	-6.880737e-001	-1.005886e-002	-6.871825e-001	-3.862427e-003	1.172772e-002
43575000.000	1.089736e-002	7.529984e-003	-2.251743e-002	-6.877099e-001	-2.245346e-002	-6.867578e-001	-3.553072e-003	1.179224e-002
44068750.000	1.104715e-002	7.241779e-003	-3.516043e-002	-6.871302e-001	-3.494518e-002	-6.862064e-001	-3.482444e-003	1.188742e-002
44562500.000	1.137983e-002	7.017261e-003	-4.769892e-002	-6.861435e-001	-4.738796e-002	-6.852090e-001	-3.214096e-003	1.186264e-002
45056250.000	1.154893e-002	6.827206e-003	-5.989100e-002	-6.852464e-001	-5.969336e-002	-6.844284e-001	-3.177948e-003	1.201744e-002
45550000.000	1.182179e-002	6.427544e-003	-7.227708e-002	-6.839610e-001	-7.214824e-002	-6.828606e-001	-2.955531e-003	1.191628e-002
46043750.000	1.197365e-002	6.266550e-003	-8.470660e-002	-6.824993e-001	-8.457407e-002	-6.815585e-001	-2.794453e-003	1.207962e-002
46537500.000	1.232085e-002	5.819743e-003	-9.713736e-002	-6.806727e-001	-9.680524e-002	-6.799357e-001	-2.674976e-003	1.206578e-002
47031250.000	1.258760e-002	5.566494e-003	-1.093316e-001	-6.788703e-001	-1.090731e-001	-6.780022e-001	-2.409227e-003	1.200617e-002
47525000.000	1.277706e-002	5.350653e-003	-1.216206e-001	-6.767735e-001	-1.213008e-001	-6.757331e-001	-2.167515e-003	1.225386e-002
48018750.000	1.300240e-002	4.956102e-003	-1.337153e-001	-6.741705e-001	-1.333893e-001	-6.733960e-001	-2.007638e-003	1.217313e-002
48512500.000	1.323345e-002	4.603777e-003	-1.459242e-001	-6.715900e-001	-1.455852e-001	-6.708165e-001	-1.835574e-003	1.219833e-002
49006250.000	1.340471e-002	4.303056e-003	-1.579902e-001	-6.686804e-001	-1.578162e-001	-6.679228e-001	-1.583430e-003	1.231612e-002
49500000.000	1.361049e-002	3.919139e-003	-1.699686e-001	-6.657975e-001	-1.698085e-001	-6.649608e-001	-1.476967e-003	1.220016e-002
49993750.000	1.391119e-002	3.768713e-003	-1.820105e-001	-6.625849e-001	-1.817282e-001	-6.616313e-001	-1.148068e-003	1.225919e-002
50487500.000	1.409028e-002	3.421446e-003	-1.939279e-001	-6.591465e-001	-1.937670e-001	-6.582105e-001	-9.533688e-004	1.220773e-002
50981250.000	1.435487e-002	3.018235e-003	-2.058480e-001	-6.552445e-001	-2.056646e-001	-6.545420e-001	-7.148689e-004	1.226850e-002
51475000.000	1.449220e-002	2.638394e-003	-2.176432e-001	-6.514545e-001	-2.172806e-001	-6.505953e-001	-5.040670e-004	1.221860e-002
51968750.000	1.470397e-002	2.218850e-003	-2.294539e-001	-6.473231e-001	-2.291712e-001	-6.466493e-001	-2.476280e-004	1.220495e-002
52462500.000	1.490352e-002	1.863504e-003	-2.410885e-001	-6.429350e-001	-2.406747e-001	-6.421804e-001	-3.247186e-005	1.223083e-002
52956250.000	1.514865e-002	1.515273e-003	-2.526916e-001	-6.385198e-001	-2.522369e-001	-6.378196e-001	2.435313e-004	1.215952e-002
53450000.000	1.530414e-002	1.129685e-003	-2.641565e-001	-6.335925e-001	-2.637964e-001	-6.329153e-001	3.991096e-004	1.225083e-002
53943750.000	1.539662e-002	8.466001e-004	-2.756370e-001	-6.288349e-001	-2.751961e-001	-6.278836e-001	7.006347e-004	1.217859e-002
54437500.000	1.565384e-002	4.332289e-004	-2.867660e-001	-6.235935e-001	-2.863814e-001	-6.229039e-001	8.985428e-004	1.210476e-002
54931250.000	1.581835e-002	5.694687e-006	-2.980605e-001	-6.182641e-001	-2.975126e-001	-6.173815e-001	1.148273e-003	1.216562e-002
55425000.000	1.602189e-002	-4.544666e-004	-3.091433e-001	-6.126396e-001	-3.087748e-001	-6.119632e-001	1.420516e-003	1.206676e-002
55918750.000	1.616147e-002	-9.499235e-004	-3.202017e-001	-6.068824e-001	-3.196654e-001	-6.060927e-001	1.664942e-003	1.201940e-002
56412500.000	1.632411e-002	-1.304701e-003	-3.309843e-001	-6.009164e-001	-3.306287e-001	-6.002490e-001	1.935390e-003	1.202105e-002
56906250.000	1.649515e-002	-1.682446e-003	-3.419409e-001	-5.947537e-001	-3.412857e-001	-5.939643e-001	2.162675e-003	1.197833e-002
57400000.000	1.666363e-002	-2.023372e-003	-3.524898e-001	-5.886304e-001	-3.520573e-001	-5.877024e-001	2.399455e-003	1.181619e-002
57893750.000	1.669707e-002	-2.547077e-003	-3.631289e-001	-5.818556e-001	-3.624443e-001	-5.811116e-001	2.551954e-003	1.172111e-002
58387500.000	1.699624e-002	-3.085400e-003	-3.734298e-001	-5.751648e-001	-3.730774e-001	-5.744557e-001	2.841230e-003	1.165987e-002
58881250.000	1.694749e-002	-3.499286e-003	-3.838989e-001	-5.683556e-001	-3.833852e-001	-5.674803e-001	3.172103e-003	1.163210e-002
59375000.000	1.712056e-002	-3.983043e-003	-3.939590e-001	-5.612382e-001	-3.933736e-001	-5.605293e-001	3.429653e-003	1.145595e-002
59868750.000	1.723647e-002	-4.619234e-003	-4.040577e-001	-5.538976e-001	-4.034993e-001	-5.532720e-001	3.666091e-003	1.131637e-002
60362500.000	1.739246e-002	-5.008064e-003	-4.140585e-001	-5.465363e-001	-4.134507e-001	-5.457973e-001	3.950177e-003	1.126374e-002
60856250.000	1.740727e-002	-5.451441e-003	-4.237222e-001	-5.389019e-001	-4.231573e-001	-5.383605e-001	4.117091e-003	1.120630e-002
61350000.000	1.750220e-002	-5.979828e-003	-4.334375e-001	-5.311747e-001	-4.328585e-001	-5.304797e-001	4.399403e-003	1.105032e-002
61843750.000	1.759440e-002	-6.428940e-003	-4.429050e-001	-5.231053e-001	-4.422866e-001	-5.224418e-001	4.582382e-003	1.085628e-002
62337500.000	1.778020e-002	-7.080798e-003	-4.523021e-001	-5.149331e-001	-4.516004e-001	-5.143682e-001	4.893889e-003	1.079810e-002
62831250.000	1.771102e-002	-7.531943e-003	-4.614087e-001	-5.065161e-001	-4.608395e-001	-5.060134e-001	5.073962e-003	1.064702e-002
63325000.000	1.784308e-002	-8.109855e-003	-4.704963e-001	-4.983729e-001	-4.699897e-001	-4.976088e-001	5.382619e-003	1.041072e-002
63818750.000	1.787351e-002	-8.584540e-003	-4.793267e-001	-4.895105e-001	-4.787184e-001	-4.888830e-001	5.667301e-003	1.027262e-002
64312500.000	1.793597e-002	-9.223401e-003	-4.880582e-001	-4.805958e-001	-4.875016e-001	-4.800721e-001	5.898124e-003	1.010024e-002
64806250.000	1.780047e-002	-9.733349e-003	-4.965716e-001	-4.718049e-001	-4.960338e-001	-4.712838e-001	6.065410e-003	9.898942e-003
65300000.000	1.796259e-002	-1.028544e-002	-5.050094e-001	-4.625393e-001	-5.044336e-001	-4.621096e-001	6.280202e-003	9.763344e-003
65793750.000	1.786240e-002	-1.083563e-002	-5.132687e-001	-4.533460e-001	-5.125112e-001	-4.529624e-001	6.600729e-003	9.559686e-003
66287500.000	1.785490e-002	-1.145568e-002	-5.212810e-001	-4.439896e-001	-5.206724e-001	-4.433995e-001	6.792578e-003	9.446199e-003
66781250.000	1.780425e-002	-1.208569e-002	-5.291873e-001	-4.343953e-001	-5.285126e-001	-4.340416e-001	6.972371e-003	9.128474e-003
67275000.000	1.774385e-002	-1.270665e-002	-5.368997e-001	-4.247613e-001	-5.363825e-001	-4.244140e-001	7.153613e-003	8.922913e-003
67768750.000	1.763846e-002	-1.322861e-002	-5.443441e-001	-4.149797e-001	-5.437952e-001	-4.145791e-001	7.468732e-003	8.880816e-003
68262500.000	1.758729e-002	-1.380611e-002	-5.517372e-001	-4.048210e-001	-5.510102e-001	-4.044341e-001	7.690992e-003	8.470288e-003
68756250.000	1.747503e-002	-1.446689e-002	-5.588872e-001	-3.948715e-001	-5.580773e-001	-3.944340e-001	7.839490e-003	8.266883e-003
69250000.000	1.743533e-002	-1.508601e-002	-5.659294e-001	-3.846401e-001	-5.651591e-001	-3.842331e-001	8.060945e-003	8.019874e-003
69743750.000	1.725465e-002	-1.558989e-002	-5.726258e-001	-3.742939e-001	-5.718875e-001	-3.739802e-001	8.262093e-003	7.806612e-003
70237500.000	1.708235e-002	-1.619886e-002	-5.794238e-001	-3.638748e-001	-5.785427e-001	-3.634230e-001	8.473907e-003	7.541810e-003
70731250.000	1.699358e-002	-1.700480e-002	-5.856067e-001	-3.533405e-001	-5.851038e-001	-3.529150e-001	8.612121e-003	7.314483e-003
71225000.000	1.688042e-002	-1.765528e-002	-5.917776e-001	-3.425355e-001	-5.913488e-001	-3.424228e-001	8.823234e-003	7.033695e-003
71718750.000	1.665505e-002	-1.819597e-002	-5.979888e-001	-3.318263e-001	-5.973656e-001	-3.314330e-001	9.009129e-003	6.687340e-003
72212500.000	1.654773e-002	-1.881503e-002	-6.039410e-001	-3.208681e-001	-6.031414e-001	-3.206541e-001	9.136299e-003	6.504588e-003
72706250.000	1.626204e-002	-1.951016e-002	-6.094633e-001	-3.098860e-001	-6.086796e-001	-3.096521e-001	9.365326e-003	6.117548e-003
73200000.000	1.598599e-002	-2.006547e-002	-6.149226e-001	-2.988770e-001	-6.141547e-001	-2.985207e-001	9.471437e-003	5.803178e-003
73693750.000	1.579434e-002	-2.072930e-002	-6.202151e-001	-2.877375e-001	-6.194716e-001	-2.872764e-001	9.658774e-003	5.604461e-003
74187500.000	1.553946e-002	-2.141210e-002	-6.252519e-001	-2.762759e-001	-6.244748e-001	-2.760959e-001	9.779047e-003	5.341813e-003
74681250.000	1.521032e-002	-2.197159e-002	-6.299820e-001	-2.648809e-001	-6.293304e-001	-2.647156e-001	9.901517e-003	4.907051e-003
75175000.000	1.495881e-002	-2.279345e-002	-6.346286e-001	-2.534374e-001	-6.338905e-001	-2.534232e-001	1.008249e-002	4.642907e-003
75668750.000	1.459249e-002	-2.333485e-002	-6.391423e-001	-2.420838e-001	-6.384211e-001	-2.416424e-001	1.025694e-002	4.341792e-003
76162500.000	1.425629e-002	-2.401267e-002	-6.432393e-001	-2.303747e-001	-6.424746e-001	-2.302110e-001	1.033209e-002	4.012132e-003
76656250.000	1.395703e-002	-2.460425e-002	-6.472781e-001	-2.186694e-001	-6.466446e-001	-2.184232e-001	1.042464e-002	3.613160e-003
77150000.000	1.347606e-002	-2.532796e-002	-6.511785e-001	-2.068852e-001	-6.503052e-001	-2.066112e-001	1.048403e-002	3.253086e-003
77643750.000	1.318909e-002	-2.590195e-002	-6.546413e-001	-1.949557e-001	-6.539856e-001	-1.949096e-001	1.062685e-002	3.009173e-003
78137500.000	1.270767e-002	-2.650560e-002	-6.581507e-001	-1.832414e-001	-6.571620e-001	-1.829888e-001	1.070455e-002	2.632000e-003
78631250.000	1.234167e-002	-2.719742e-002	-6.612098e-001	-1.710538e-001	-6.603249e-001	-1.711373e-001	1.083548e-002	2.281400e-003
79125000.000	1.183590e-002	-2.783887e-002	-6.643158e-001	-1.592035e-001	-6.632217e-001	-1.591344e-001	1.089264e-002	1.898723e-003
79618750.000	1.137810e-002	-2.844684e-002	-6.668415e-001	-1.471801e-001	-6.659217e-001	-1.470433e-001	1.091145e-002	1.569414e-003
80112500.000	1.088353e-002	-2.910109e-002	-6.693396e-001	-1.351157e-001	-6.684857e-001	-1.351534e-001	1.100475e-002	1.255556e-003
80606250.000	1.031736e-002	-2.967200e-002	-6.714197e-001	-1.230306e-001	-6.708401e-001	-1.229174e-001	1.108322e-002	8.383018e-004
81100000.000	9.896797e-003	-3.029168e-002	-6.735516e-001	-1.106551e-001	-6.728301e-001	-1.106718e-001	1.110245e-002	5.047915e-004
81593750.000	9.325557e-003	-3.083860e-002	-6.753559e-001	-9.851257e-002	-6.747335e-001	-9.857861e-002	1.107755e-002	6.048452e-005
82087500.000	8.730274e-003	-3.143573e-002	-6.770042e-001	-8.624369e-002	-6.763178e-001	-8.628376e-002	1.114104e-002	-2.794842e-004
82581250.000	8.136720e-003	-3.203596e-002	-6.783662e-001	-7.404324e-002	-6.776596e-001	-7.409327e-002	1.112447e-002	-6.479426e-004
83075000.000	7.526553e-003	-3.258902e-002	-6.795048e-001	-6.176305e-002	-6.787427e-001	-6.183860e-002	1.115110e-002	-1.096494e-003
83568750.000	6.971594e-003	-3.313445e-002	-6.805859e-001	-4.952171e-002	-6.796357e-001	-4.947371e-002	1.117818e-002	-1.409866e-003
84062500.000	6.299880e-003	-3.367694e-002	-6.812690e-001	-3.720167e-002	-6.804847e-001	-3.727404e-002	1.113403e-002	-1.771857e-003
