!Keysight Technologies,E5061B,SG49100003,B.05.06
!Date: Tue Jan 07 17:32:13 2020
!Data & Calibration Information:
!Freq	S11:SOLT2(ON)	S21:SOLT2(ON)	S12:SOLT2(ON)	S22:SOLT2(ON)
# Hz S RI R 50
10000000.000	-1.163907e-002	1.622160e-002	6.481358e-001	-2.481791e-001	6.475119e-001	-2.479950e-001	-1.298243e-002	1.560921e-002
10493750.000	-1.126046e-002	1.611484e-002	6.432940e-001	-2.601708e-001	6.426295e-001	-2.598985e-001	-1.268844e-002	1.523513e-002
10987500.000	-1.083203e-002	1.598387e-002	6.383930e-001	-2.720710e-001	6.376719e-001	-2.717389e-001	-1.246964e-002	1.489376e-002
11481250.000	-1.046712e-002	1.596331e-002	6.332306e-001	-2.837756e-001	6.326043e-001	-2.831955e-001	-1.226811e-002	1.462449e-002
11975000.000	-1.005410e-002	1.599115e-002	6.276655e-001	-2.951954e-001	6.272374e-001	-2.949842e-001	-1.202842e-002	1.452155e-002
12468750.000	-9.733773e-003	1.596327e-002	6.220933e-001	-3.067067e-001	6.214656e-001	-3.063701e-001	-1.189048e-002	1.435191e-002
12962500.000	-9.288124e-003	1.598466e-002	6.162689e-001	-3.180812e-001	6.153862e-001	-3.175361e-001	-1.174332e-002	1.422278e-002
13456250.000	-9.004958e-003	1.589746e-002	6.102104e-001	-3.292959e-001	6.095311e-001	-3.289002e-001	-1.161842e-002	1.410976e-002
13950000.000	-8.600611e-003	1.595882e-002	6.040872e-001	-3.403491e-001	6.031918e-001	-3.400174e-001	-1.149430e-002	1.399394e-002
14443750.000	-8.186861e-003	1.595414e-002	5.976908e-001	-3.511639e-001	5.969361e-001	-3.508238e-001	-1.125774e-002	1.387968e-002
14937500.000	-7.756710e-003	1.593342e-002	5.911390e-001	-3.620369e-001	5.902836e-001	-3.615886e-001	-1.108397e-002	1.382189e-002
15431250.000	-7.486499e-003	1.589164e-002	5.841170e-001	-3.727587e-001	5.833293e-001	-3.724314e-001	-1.086478e-002	1.373007e-002
15925000.000	-7.119620e-003	1.582442e-002	5.770023e-001	-3.834219e-001	5.763757e-001	-3.828320e-001	-1.057151e-002	1.355354e-002
16418750.000	-6.581485e-003	1.574779e-002	5.700248e-001	-3.937903e-001	5.692412e-001	-3.932022e-001	-1.037050e-002	1.337700e-002
16912500.000	-6.212752e-003	1.573999e-002	5.627171e-001	-4.040405e-001	5.618057e-001	-4.036251e-001	-1.016214e-002	1.323282e-002
17406250.000	-5.762974e-003	1.573896e-002	5.550389e-001	-4.141850e-001	5.543174e-001	-4.136689e-001	-9.862185e-003	1.314757e-002
17900000.000	-5.405485e-003	1.564142e-002	5.473739e-001	-4.241011e-001	5.467862e-001	-4.237487e-001	-9.661507e-003	1.299202e-002
18393750.000	-5.043263e-003	1.560650e-002	5.392541e-001	-4.340099e-001	5.386676e-001	-4.335932e-001	-9.417217e-003	1.283027e-002
18887500.000	-4.517548e-003	1.552424e-002	5.312434e-001	-4.438893e-001	5.306186e-001	-4.431625e-001	-9.195631e-003	1.265188e-002
19381250.000	-4.162009e-003	1.544883e-002	5.230776e-001	-4.534598e-001	5.222817e-001	-4.528005e-001	-8.987882e-003	1.231373e-002
19875000.000	-3.816412e-003	1.533646e-002	5.146747e-001	-4.627478e-001	5.139866e-001	-4.621139e-001	-8.796321e-003	1.225591e-002
20368750.000	-3.380630e-003	1.524371e-002	5.060561e-001	-4.720198e-001	5.053467e-001	-4.713894e-001	-8.605251e-003	1.205173e-002
20862500.000	-2.974369e-003	1.515257e-002	4.972779e-001	-4.809436e-001	4.966535e-001	-4.803884e-001	-8.466317e-003	1.195348e-002
21356250.000	-2.652748e-003	1.506040e-002	4.884020e-001	-4.900020e-001	4.877704e-001	-4.892950e-001	-8.295223e-003	1.185219e-002
21850000.000	-2.313854e-003	1.502708e-002	4.794220e-001	-4.987090e-001	4.787336e-001	-4.980754e-001	-8.202992e-003	1.173568e-002
22343750.000	-1.946637e-003	1.481824e-002	4.700508e-001	-5.073899e-001	4.695491e-001	-5.066437e-001	-8.027071e-003	1.155566e-002
22837500.000	-1.568684e-003	1.477714e-002	4.607250e-001	-5.157395e-001	4.601862e-001	-5.149011e-001	-7.866825e-003	1.151033e-002
23331250.000	-1.223744e-003	1.465730e-002	4.511434e-001	-5.239885e-001	4.506560e-001	-5.232517e-001	-7.790396e-003	1.148050e-002
23825000.000	-8.851784e-004	1.455525e-002	4.415124e-001	-5.320020e-001	4.409606e-001	-5.312073e-001	-7.624139e-003	1.137641e-002
24318750.000	-5.108488e-004	1.452076e-002	4.316330e-001	-5.397979e-001	4.311586e-001	-5.390961e-001	-7.560310e-003	1.141981e-002
24812500.000	-2.251005e-004	1.435327e-002	4.216841e-001	-5.474563e-001	4.213641e-001	-5.468083e-001	-7.414117e-003	1.130380e-002
25306250.000	7.994188e-005	1.429037e-002	4.116771e-001	-5.549413e-001	4.112623e-001	-5.541721e-001	-7.437318e-003	1.129378e-002
25800000.000	4.274515e-004	1.419979e-002	4.014671e-001	-5.622583e-001	4.008811e-001	-5.616525e-001	-7.298308e-003	1.130998e-002
26293750.000	7.764826e-004	1.408137e-002	3.909833e-001	-5.695870e-001	3.905308e-001	-5.688629e-001	-7.188481e-003	1.129208e-002
26787500.000	1.009828e-003	1.402385e-002	3.807357e-001	-5.763751e-001	3.802318e-001	-5.755318e-001	-7.056470e-003	1.127408e-002
27281250.000	1.372450e-003	1.393761e-002	3.700321e-001	-5.831534e-001	3.696009e-001	-5.824579e-001	-7.009678e-003	1.126368e-002
27775000.000	1.702206e-003	1.370320e-002	3.593589e-001	-5.898212e-001	3.588730e-001	-5.890010e-001	-6.845008e-003	1.122841e-002
28268750.000	1.909379e-003	1.362555e-002	3.485255e-001	-5.959923e-001	3.481621e-001	-5.955073e-001	-6.793352e-003	1.121965e-002
28762500.000	2.316645e-003	1.353155e-002	3.374882e-001	-6.022465e-001	3.371351e-001	-6.015592e-001	-6.730476e-003	1.112666e-002
29256250.000	2.619119e-003	1.336370e-002	3.264698e-001	-6.082574e-001	3.261864e-001	-6.074865e-001	-6.578082e-003	1.122540e-002
29750000.000	2.871742e-003	1.328593e-002	3.153779e-001	-6.139138e-001	3.150397e-001	-6.131433e-001	-6.502913e-003	1.113128e-002
30243750.000	3.302253e-003	1.316767e-002	3.040535e-001	-6.194428e-001	3.039005e-001	-6.187705e-001	-6.434491e-003	1.127280e-002
30737500.000	3.553009e-003	1.304710e-002	2.927343e-001	-6.248611e-001	2.925111e-001	-6.239372e-001	-6.386203e-003	1.121717e-002
31231250.000	3.785093e-003	1.289207e-002	2.812031e-001	-6.298789e-001	2.810968e-001	-6.291087e-001	-6.263321e-003	1.123937e-002
31725000.000	4.134878e-003	1.268517e-002	2.698272e-001	-6.349112e-001	2.696622e-001	-6.340232e-001	-6.124584e-003	1.133400e-002
32218750.000	4.456537e-003	1.248746e-002	2.582351e-001	-6.395080e-001	2.580791e-001	-6.388214e-001	-6.044722e-003	1.120949e-002
32712500.000	4.741252e-003	1.233679e-002	2.466082e-001	-6.440674e-001	2.464312e-001	-6.431340e-001	-5.906327e-003	1.126098e-002
33206250.000	5.058311e-003	1.216333e-002	2.345736e-001	-6.483656e-001	2.347211e-001	-6.475128e-001	-5.755871e-003	1.125951e-002
33700000.000	5.363876e-003	1.207421e-002	2.229347e-001	-6.524932e-001	2.228636e-001	-6.514855e-001	-5.703452e-003	1.128885e-002
34193750.000	5.589861e-003	1.186345e-002	2.110594e-001	-6.562513e-001	2.109540e-001	-6.553065e-001	-5.573986e-003	1.134585e-002
34687500.000	5.996829e-003	1.168549e-002	1.991915e-001	-6.598856e-001	1.991304e-001	-6.591106e-001	-5.490644e-003	1.134100e-002
35181250.000	6.239041e-003	1.156312e-002	1.870583e-001	-6.634703e-001	1.868739e-001	-6.624844e-001	-5.353511e-003	1.137965e-002
35675000.000	6.570638e-003	1.136978e-002	1.751668e-001	-6.665730e-001	1.749119e-001	-6.656711e-001	-5.303537e-003	1.136741e-002
36168750.000	6.806595e-003	1.114694e-002	1.628548e-001	-6.696601e-001	1.628351e-001	-6.687510e-001	-5.239909e-003	1.135658e-002
36662500.000	7.150239e-003	1.094509e-002	1.506498e-001	-6.720992e-001	1.505777e-001	-6.713962e-001	-4.999593e-003	1.145863e-002
37156250.000	7.315760e-003	1.068777e-002	1.384133e-001	-6.748656e-001	1.384885e-001	-6.740368e-001	-4.932927e-003	1.140561e-002
37650000.000	7.637823e-003	1.060777e-002	1.261179e-001	-6.770383e-001	1.263437e-001	-6.763417e-001	-4.783846e-003	1.139059e-002
38143750.000	7.968287e-003	1.026472e-002	1.141117e-001	-6.793244e-001	1.139588e-001	-6.782149e-001	-4.558339e-003	1.157936e-002
38637500.000	8.225818e-003	1.007998e-002	1.017256e-001	-6.810244e-001	1.015134e-001	-6.802446e-001	-4.519349e-003	1.157568e-002
39131250.000	8.499820e-003	9.906190e-003	8.940350e-002	-6.828378e-001	8.928103e-002	-6.819107e-001	-4.510602e-003	1.153611e-002
39625000.000	8.752351e-003	9.681838e-003	7.697656e-002	-6.841049e-001	7.675980e-002	-6.832206e-001	-4.331742e-003	1.168951e-002
40118750.000	9.043223e-003	9.487299e-003	6.451138e-002	-6.853552e-001	6.462779e-002	-6.844876e-001	-4.075896e-003	1.160870e-002
40612500.000	9.238229e-003	9.288637e-003	5.220737e-002	-6.863062e-001	5.204791e-002	-6.853940e-001	-4.040492e-003	1.167292e-002
41106250.000	9.534138e-003	8.904576e-003	3.966390e-002	-6.871934e-001	3.966922e-002	-6.861059e-001	-3.835323e-003	1.176523e-002
41600000.000	9.720921e-003	8.635626e-003	2.709417e-002	-6.877069e-001	2.719529e-002	-6.865761e-001	-3.716859e-003	1.180471e-002
42093750.000	1.005386e-002	8.508813e-003	1.480276e-002	-6.879204e-001	1.472842e-002	-6.869529e-001	-3.472333e-003	1.189457e-002
42587500.000	1.033167e-002	8.244107e-003	2.350076e-003	-6.878877e-001	2.115128e-003	-6.869566e-001	-3.351981e-003	1.195409e-002
43081250.000	1.060014e-002	7.969318e-003	-1.022224e-002	-6.878747e-001	-1.010417e-002	-6.869377e-001	-3.272896e-003	1.194884e-002
43575000.000	1.087427e-002	7.654763e-003	-2.267955e-002	-6.874264e-001	-2.240208e-002	-6.866072e-001	-2.922694e-003	1.203032e-002
44068750.000	1.109135e-002	7.303041e-003	-3.506904e-002	-6.867696e-001	-3.497703e-002	-6.859983e-001	-2.892457e-003	1.208447e-002
44562500.000	1.143621e-002	7.115225e-003	-4.757874e-002	-6.859749e-001	-4.731711e-002	-6.850541e-001	-2.598001e-003	1.212359e-002
45056250.000	1.157559e-002	6.917982e-003	-5.989027e-002	-6.848880e-001	-5.979312e-002	-6.841880e-001	-2.562041e-003	1.224488e-002
45550000.000	1.186020e-002	6.495006e-003	-7.225315e-002	-6.836876e-001	-7.216488e-002	-6.826908e-001	-2.285573e-003	1.213530e-002
46043750.000	1.200994e-002	6.372168e-003	-8.464554e-002	-6.822101e-001	-8.461707e-002	-6.812791e-001	-2.178771e-003	1.230445e-002
46537500.000	1.236262e-002	5.922735e-003	-9.695900e-002	-6.805152e-001	-9.688712e-002	-6.797588e-001	-2.026602e-003	1.225778e-002
47031250.000	1.265541e-002	5.643338e-003	-1.092747e-001	-6.786923e-001	-1.090634e-001	-6.777591e-001	-1.731912e-003	1.219947e-002
47525000.000	1.282803e-002	5.456015e-003	-1.214426e-001	-6.764713e-001	-1.212349e-001	-6.754969e-001	-1.502852e-003	1.242825e-002
48018750.000	1.302981e-002	5.012832e-003	-1.335839e-001	-6.740631e-001	-1.334642e-001	-6.732187e-001	-1.321252e-003	1.231319e-002
48512500.000	1.333254e-002	4.677971e-003	-1.458793e-001	-6.714684e-001	-1.455404e-001	-6.705341e-001	-1.127334e-003	1.239168e-002
49006250.000	1.350249e-002	4.397600e-003	-1.580160e-001	-6.685597e-001	-1.577585e-001	-6.677181e-001	-8.621482e-004	1.248439e-002
49500000.000	1.369448e-002	4.000974e-003	-1.700201e-001	-6.654827e-001	-1.698716e-001	-6.647591e-001	-7.455056e-004	1.239982e-002
49993750.000	1.395590e-002	3.841891e-003	-1.819653e-001	-6.622832e-001	-1.816243e-001	-6.613263e-001	-4.275262e-004	1.242818e-002
50487500.000	1.416003e-002	3.487638e-003	-1.938692e-001	-6.588594e-001	-1.935717e-001	-6.579207e-001	-2.099611e-004	1.234730e-002
50981250.000	1.440191e-002	3.086479e-003	-2.058411e-001	-6.551577e-001	-2.055237e-001	-6.542699e-001	3.420336e-005	1.241559e-002
51475000.000	1.459172e-002	2.709591e-003	-2.175622e-001	-6.513409e-001	-2.172376e-001	-6.503841e-001	2.553847e-004	1.237743e-002
51968750.000	1.477040e-002	2.292863e-003	-2.294102e-001	-6.470966e-001	-2.289557e-001	-6.462743e-001	5.287077e-004	1.239082e-002
52462500.000	1.498807e-002	1.924786e-003	-2.410384e-001	-6.427954e-001	-2.406635e-001	-6.418963e-001	7.507237e-004	1.238368e-002
52956250.000	1.523926e-002	1.542860e-003	-2.526585e-001	-6.381843e-001	-2.520219e-001	-6.375306e-001	1.073090e-003	1.234333e-002
53450000.000	1.536832e-002	1.169905e-003	-2.640700e-001	-6.333181e-001	-2.636551e-001	-6.327284e-001	1.200479e-003	1.240273e-002
53943750.000	1.550161e-002	8.868831e-004	-2.754395e-001	-6.285770e-001	-2.749028e-001	-6.277641e-001	1.492083e-003	1.234219e-002
54437500.000	1.574569e-002	4.248735e-004	-2.866034e-001	-6.234411e-001	-2.862760e-001	-6.226115e-001	1.709829e-003	1.223971e-002
54931250.000	1.593761e-002	-2.208162e-005	-2.979520e-001	-6.179143e-001	-2.973872e-001	-6.171549e-001	1.978868e-003	1.227021e-002
55425000.000	1.611669e-002	-4.719590e-004	-3.091413e-001	-6.123903e-001	-3.086184e-001	-6.115348e-001	2.264808e-003	1.218232e-002
55918750.000	1.625446e-002	-9.468640e-004	-3.200540e-001	-6.066585e-001	-3.196411e-001	-6.058684e-001	2.513657e-003	1.213399e-002
56412500.000	1.642270e-002	-1.314019e-003	-3.308745e-001	-6.007656e-001	-3.304916e-001	-6.000603e-001	2.820856e-003	1.210280e-002
56906250.000	1.657537e-002	-1.673389e-003	-3.416657e-001	-5.946146e-001	-3.411580e-001	-5.938485e-001	3.035851e-003	1.208833e-002
57400000.000	1.676815e-002	-2.039410e-003	-3.523446e-001	-5.884035e-001	-3.518800e-001	-5.873428e-001	3.306700e-003	1.191686e-002
57893750.000	1.677360e-002	-2.548155e-003	-3.627949e-001	-5.816928e-001	-3.622707e-001	-5.809342e-001	3.467088e-003	1.181548e-002
58387500.000	1.706136e-002	-3.091885e-003	-3.733908e-001	-5.750967e-001	-3.729786e-001	-5.743343e-001	3.791394e-003	1.175955e-002
58881250.000	1.701511e-002	-3.546805e-003	-3.836006e-001	-5.680652e-001	-3.830608e-001	-5.673804e-001	4.107743e-003	1.170275e-002
59375000.000	1.723278e-002	-4.012011e-003	-3.937911e-001	-5.610784e-001	-3.931842e-001	-5.603277e-001	4.392803e-003	1.151619e-002
59868750.000	1.735249e-002	-4.651464e-003	-4.038914e-001	-5.537203e-001	-4.033703e-001	-5.531376e-001	4.622171e-003	1.142127e-002
60362500.000	1.747598e-002	-5.020679e-003	-4.137549e-001	-5.462950e-001	-4.132418e-001	-5.456838e-001	4.928130e-003	1.133440e-002
60856250.000	1.747641e-002	-5.490687e-003	-4.236204e-001	-5.386028e-001	-4.230904e-001	-5.381890e-001	5.150964e-003	1.126774e-002
61350000.000	1.760996e-002	-6.048382e-003	-4.331857e-001	-5.308527e-001	-4.326345e-001	-5.302651e-001	5.353300e-003	1.112651e-002
61843750.000	1.770881e-002	-6.487556e-003	-4.426996e-001	-5.228585e-001	-4.421261e-001	-5.222118e-001	5.616166e-003	1.091325e-002
62337500.000	1.788179e-002	-7.115117e-003	-4.520131e-001	-5.147534e-001	-4.514079e-001	-5.142220e-001	5.918575e-003	1.085488e-002
62831250.000	1.779290e-002	-7.564961e-003	-4.612118e-001	-5.064011e-001	-4.607034e-001	-5.059579e-001	6.138590e-003	1.070947e-002
63325000.000	1.791596e-002	-8.159721e-003	-4.701488e-001	-4.980708e-001	-4.697418e-001	-4.972481e-001	6.442321e-003	1.043187e-002
63818750.000	1.793244e-002	-8.643212e-003	-4.791471e-001	-4.893416e-001	-4.784203e-001	-4.887310e-001	6.721016e-003	1.032726e-002
64312500.000	1.802664e-002	-9.286690e-003	-4.878901e-001	-4.805073e-001	-4.872429e-001	-4.798521e-001	6.970222e-003	1.012771e-002
64806250.000	1.788977e-002	-9.799530e-003	-4.964080e-001	-4.716919e-001	-4.958556e-001	-4.712373e-001	7.131485e-003	9.948631e-003
65300000.000	1.805765e-002	-1.033998e-002	-5.047006e-001	-4.624243e-001	-5.041738e-001	-4.619662e-001	7.383321e-003	9.826069e-003
65793750.000	1.794780e-002	-1.091135e-002	-5.131791e-001	-4.533291e-001	-5.124217e-001	-4.528651e-001	7.714881e-003	9.573960e-003
66287500.000	1.788528e-002	-1.154319e-002	-5.210230e-001	-4.439139e-001	-5.205540e-001	-4.432638e-001	7.903451e-003	9.462994e-003
66781250.000	1.785960e-002	-1.214443e-002	-5.289268e-001	-4.342284e-001	-5.283525e-001	-4.337986e-001	8.116083e-003	9.143487e-003
67275000.000	1.785783e-002	-1.274834e-002	-5.366875e-001	-4.246654e-001	-5.361142e-001	-4.242409e-001	8.293535e-003	8.952950e-003
67768750.000	1.768624e-002	-1.330004e-002	-5.441076e-001	-4.149064e-001	-5.435600e-001	-4.144830e-001	8.628682e-003	8.879758e-003
68262500.000	1.767150e-002	-1.388424e-002	-5.516108e-001	-4.048079e-001	-5.507439e-001	-4.043280e-001	8.881702e-003	8.488810e-003
68756250.000	1.752643e-002	-1.452721e-002	-5.586488e-001	-3.947674e-001	-5.579480e-001	-3.943773e-001	9.022772e-003	8.283499e-003
69250000.000	1.746133e-002	-1.516496e-002	-5.656738e-001	-3.845515e-001	-5.650284e-001	-3.841932e-001	9.262846e-003	8.015597e-003
69743750.000	1.729415e-002	-1.566786e-002	-5.724259e-001	-3.743051e-001	-5.716913e-001	-3.738123e-001	9.452683e-003	7.798902e-003
70237500.000	1.712580e-002	-1.632241e-002	-5.791855e-001	-3.638085e-001	-5.783798e-001	-3.633277e-001	9.704724e-003	7.535123e-003
70731250.000	1.703678e-002	-1.710913e-002	-5.853989e-001	-3.533170e-001	-5.848487e-001	-3.528839e-001	9.861631e-003	7.284429e-003
71225000.000	1.694484e-002	-1.770568e-002	-5.915793e-001	-3.425089e-001	-5.910962e-001	-3.423161e-001	1.006896e-002	7.020956e-003
71718750.000	1.671082e-002	-1.832684e-002	-5.977372e-001	-3.316980e-001	-5.971249e-001	-3.314301e-001	1.023784e-002	6.689627e-003
72212500.000	1.657898e-002	-1.890715e-002	-6.036574e-001	-3.207658e-001	-6.029218e-001	-3.205583e-001	1.037771e-002	6.483449e-003
72706250.000	1.628131e-002	-1.960409e-002	-6.091540e-001	-3.099877e-001	-6.084914e-001	-3.094692e-001	1.063716e-002	6.074796e-003
73200000.000	1.599597e-002	-2.021449e-002	-6.145067e-001	-2.987644e-001	-6.139191e-001	-2.984854e-001	1.079032e-002	5.751426e-003
73693750.000	1.582743e-002	-2.088861e-002	-6.199541e-001	-2.876472e-001	-6.192200e-001	-2.872707e-001	1.094656e-002	5.545981e-003
74187500.000	1.560050e-002	-2.152982e-002	-6.249558e-001	-2.762021e-001	-6.242273e-001	-2.760072e-001	1.107966e-002	5.270980e-003
74681250.000	1.524675e-002	-2.208529e-002	-6.297815e-001	-2.648789e-001	-6.291015e-001	-2.645358e-001	1.121015e-002	4.854341e-003
75175000.000	1.501668e-002	-2.287650e-002	-6.343499e-001	-2.535544e-001	-6.336971e-001	-2.532666e-001	1.140108e-002	4.559113e-003
75668750.000	1.462085e-002	-2.349136e-002	-6.388197e-001	-2.420332e-001	-6.381219e-001	-2.415210e-001	1.156356e-002	4.226416e-003
76162500.000	1.424947e-002	-2.413240e-002	-6.430252e-001	-2.303343e-001	-6.422122e-001	-2.300328e-001	1.169955e-002	3.922981e-003
76656250.000	1.393492e-002	-2.470033e-002	-6.469385e-001	-2.184808e-001	-6.462071e-001	-2.184876e-001	1.175117e-002	3.522873e-003
77150000.000	1.349578e-002	-2.544041e-002	-6.508149e-001	-2.069216e-001	-6.499360e-001	-2.066305e-001	1.185655e-002	3.170532e-003
77643750.000	1.318467e-002	-2.600431e-002	-6.542480e-001	-1.950229e-001	-6.537509e-001	-1.948050e-001	1.201311e-002	2.922225e-003
78137500.000	1.270000e-002	-2.663389e-002	-6.576134e-001	-1.831516e-001	-6.569079e-001	-1.830292e-001	1.209102e-002	2.526495e-003
78631250.000	1.235572e-002	-2.727970e-002	-6.609048e-001	-1.711482e-001	-6.600810e-001	-1.711154e-001	1.221077e-002	2.201712e-003
79125000.000	1.182882e-002	-2.793745e-002	-6.640003e-001	-1.592496e-001	-6.630403e-001	-1.590937e-001	1.229613e-002	1.768406e-003
79618750.000	1.136287e-002	-2.852616e-002	-6.665689e-001	-1.470969e-001	-6.656609e-001	-1.471235e-001	1.229689e-002	1.426563e-003
80112500.000	1.089615e-002	-2.919288e-002	-6.690170e-001	-1.351339e-001	-6.681828e-001	-1.352320e-001	1.242666e-002	1.122864e-003
80606250.000	1.032556e-002	-2.979147e-002	-6.710923e-001	-1.229150e-001	-6.704876e-001	-1.230107e-001	1.251660e-002	6.843807e-004
81100000.000	9.908017e-003	-3.040356e-002	-6.732166e-001	-1.108589e-001	-6.726450e-001	-1.108039e-001	1.255457e-002	3.416332e-004
81593750.000	9.310900e-003	-3.092413e-002	-6.751128e-001	-9.865758e-002	-6.743910e-001	-9.850585e-002	1.260350e-002	-1.059623e-004
82087500.000	8.718410e-003	-3.153263e-002	-6.767918e-001	-8.648956e-002	-6.759007e-001	-8.630185e-002	1.259142e-002	-4.354646e-004
82581250.000	8.138203e-003	-3.214000e-002	-6.781591e-001	-7.405041e-002	-6.772988e-001	-7.414078e-002	1.262194e-002	-8.007943e-004
83075000.000	7.512501e-003	-3.267382e-002	-6.792769e-001	-6.199813e-002	-6.786105e-001	-6.178740e-002	1.266369e-002	-1.248619e-003
83568750.000	6.935440e-003	-3.324482e-002	-6.802819e-001	-4.957556e-002	-6.794337e-001	-4.962260e-002	1.270351e-002	-1.616073e-003
84062500.000	6.286036e-003	-3.375638e-002	-6.809514e-001	-3.727856e-002	-6.801817e-001	-3.734498e-002	1.266026e-002	-1.984040e-003
